name,type,start_time,duration,"data"
"RX","data",0.107068154,0.000989582,0x03
"RX","data",0.10810984,0.000989582,0x00
"RX","data",0.109151518,0.000989582,0x00
"RX","data",0.110193196,0.000989582,0x00
"RX","data",0.11123487,0.000989582,0x02
"RX","data",0.11227655,0.000989582,0x16
"RX","data",0.11331823,0.000989582,0x36
"RX","data",0.1143599,0.000989582,0xFF
"RX","data",0.115401578,0.000989582,0xAE
"TX","data",0.134314816,0.000989582,0x03
"TX","data",0.13537004,0.000989582,0x00
"TX","data",0.136425246,0.000989582,0x00
"TX","data",0.137480284,0.000989582,0x00
"TX","data",0.138535076,0.000989582,0x01
"TX","data",0.13959023,0.000989582,0x00
"TX","data",0.140645304,0.000989582,0xFF
"TX","data",0.141700298,0.000989582,0xFB
"RX","data",0.426051838,0.000989582,0x03
"RX","data",0.42709351,0.000989582,0x00
"RX","data",0.428135188,0.000989582,0x00
"RX","data",0.429176866,0.000989582,0x00
"RX","data",0.430218536,0.000989582,0x28
"RX","data",0.431260214,0.000989582,0x10
"RX","data",0.432301902,0.000989582,0x07
"RX","data",0.433343572,0.000989582,0x10
"RX","data",0.43438525,0.000989582,0x08
"RX","data",0.435426922,0.000989582,0x10
"RX","data",0.436468602,0.000989582,0x37
"RX","data",0.437510254,0.000989582,0x10
"RX","data",0.438551962,0.000989582,0x38
"RX","data",0.43959363,0.000989582,0x10
"RX","data",0.440635308,0.000989582,0x3B
"RX","data",0.441676988,0.000989582,0x10
"RX","data",0.442718658,0.000989582,0x3C
"RX","data",0.44376034,0.000989582,0x10
"RX","data",0.444802016,0.000989582,0x3D
"RX","data",0.44584369,0.000989582,0x10
"RX","data",0.446885368,0.000989582,0xB5
"RX","data",0.44792704,0.000989582,0x11
"RX","data",0.448968722,0.000989582,0x0B
"RX","data",0.450010396,0.000989582,0x11
"RX","data",0.451052074,0.000989582,0x0C
"RX","data",0.452093752,0.000989582,0x11
"RX","data",0.453135426,0.000989582,0x0D
"RX","data",0.454177098,0.000989582,0x11
"RX","data",0.45521878,0.000989582,0x0E
"RX","data",0.456260464,0.000989582,0x11
"RX","data",0.457302128,0.000989582,0x11
"RX","data",0.458343808,0.000989582,0x11
"RX","data",0.459385484,0.000989582,0x15
"RX","data",0.460427164,0.000989582,0x11
"RX","data",0.461468838,0.000989582,0x16
"RX","data",0.462510516,0.000989582,0x11
"RX","data",0.463552194,0.000989582,0x41
"RX","data",0.464593864,0.000989582,0x11
"RX","data",0.465635546,0.000989582,0x45
"RX","data",0.466677226,0.000989582,0x11
"RX","data",0.467718898,0.000989582,0x47
"RX","data",0.468760574,0.000989582,0x11
"RX","data",0.469802248,0.000989582,0x48
"RX","data",0.470843932,0.000989582,0x11
"RX","data",0.4718856,0.000989582,0x49
"RX","data",0.472927282,0.000989582,0xFA
"RX","data",0.473968964,0.000989582,0xD5
"TX","data",0.482115492,0.000989582,0x03
"TX","data",0.483170496,0.000989582,0x00
"TX","data",0.484225698,0.000989582,0x00
"TX","data",0.485280874,0.000989582,0x00
"TX","data",0.486336304,0.000989582,0x51
"TX","data",0.48739124,0.000989582,0x01
"TX","data",0.488446346,0.000989582,0x10
"TX","data",0.489501532,0.000989582,0x07
"TX","data",0.490556434,0.000989582,0xFF
"TX","data",0.49161162,0.000989582,0xFF
"TX","data",0.492666686,0.000989582,0x10
"TX","data",0.49372191,0.000989582,0x08
"TX","data",0.49478917,0.000989582,0xFF
"TX","data",0.4958441,0.000989582,0xFF
"TX","data",0.496899192,0.000989582,0x10
"TX","data",0.49795425,0.000989582,0x37
"TX","data",0.499009434,0.000989582,0xFF
"TX","data",0.500064538,0.000989582,0xFF
"TX","data",0.501119726,0.000989582,0x10
"TX","data",0.502174914,0.000989582,0x38
"TX","data",0.503229982,0.000989582,0xFF
"TX","data",0.504285132,0.000989582,0xFF
"TX","data",0.505340754,0.000989582,0x10
"TX","data",0.506395632,0.000989582,0x3B
"TX","data",0.50745092,0.000989582,0xFF
"TX","data",0.508505974,0.000989582,0xFF
"TX","data",0.509560892,0.000989582,0x10
"TX","data",0.510616046,0.000989582,0x3C
"TX","data",0.511671208,0.000989582,0xFF
"TX","data",0.512726514,0.000989582,0xFF
"TX","data",0.513781626,0.000989582,0x10
"TX","data",0.514848708,0.000989582,0x3D
"TX","data",0.515903924,0.000989582,0xFF
"TX","data",0.516959062,0.000989582,0xFF
"TX","data",0.51801436,0.000989582,0x10
"TX","data",0.519069542,0.000989582,0xB5
"TX","data",0.520124662,0.000989582,0x00
"TX","data",0.521179652,0.000989582,0x00
"TX","data",0.52223482,0.000989582,0x11
"TX","data",0.52328988,0.000989582,0x0B
"TX","data",0.524344714,0.000989582,0xFF
"TX","data",0.525400002,0.000989582,0xFF
"TX","data",0.526455288,0.000989582,0x11
"TX","data",0.527510426,0.000989582,0x0C
"TX","data",0.528565656,0.000989582,0xFF
"TX","data",0.529620808,0.000989582,0xFF
"TX","data",0.530675932,0.000989582,0x11
"TX","data",0.531731094,0.000989582,0x0D
"TX","data",0.53278633,0.000989582,0xFF
"TX","data",0.533841342,0.000989582,0xFF
"TX","data",0.5349166,0.000989582,0x11
"TX","data",0.535971738,0.000989582,0x0E
"TX","data",0.537026972,0.000989582,0xFF
"TX","data",0.538082096,0.000989582,0xFF
"TX","data",0.539137188,0.000989582,0x11
"TX","data",0.540192338,0.000989582,0x11
"TX","data",0.54124737,0.000989582,0xFF
"TX","data",0.542302546,0.000989582,0xFF
"TX","data",0.54335793,0.000989582,0x11
"TX","data",0.544413048,0.000989582,0x15
"TX","data",0.54546816,0.000989582,0xFF
"TX","data",0.546523534,0.000989582,0xFF
"TX","data",0.547578644,0.000989582,0x11
"TX","data",0.548633762,0.000989582,0x16
"TX","data",0.549688742,0.000989582,0xFF
"TX","data",0.550743728,0.000989582,0xFF
"TX","data",0.551798818,0.000989582,0x11
"TX","data",0.55285378,0.000989582,0x41
"TX","data",0.55390893,0.000989582,0xFF
"TX","data",0.554967894,0.000989582,0xFF
"TX","data",0.55602302,0.000989582,0x11
"TX","data",0.557078206,0.000989582,0x45
"TX","data",0.558133162,0.000989582,0x00
"TX","data",0.55918835,0.000989582,0x00
"TX","data",0.56024349,0.000989582,0x11
"TX","data",0.56129867,0.000989582,0x47
"TX","data",0.56235373,0.000989582,0xFF
"TX","data",0.56340878,0.000989582,0xFF
"TX","data",0.564463934,0.000989582,0x11
"TX","data",0.565519114,0.000989582,0x48
"TX","data",0.566574252,0.000989582,0xFF
"TX","data",0.567629418,0.000989582,0xFF
"TX","data",0.568684578,0.000989582,0x11
"TX","data",0.569739714,0.000989582,0x49
"TX","data",0.57079481,0.000989582,0xFF
"TX","data",0.571849978,0.000989582,0xFF
"TX","data",0.57290484,0.000989582,0xD6
"TX","data",0.57396001,0.000989582,0xCF
"RX","data",0.785035916,0.000989582,0x03
"RX","data",0.7860776,0.000989582,0x00
"RX","data",0.787119274,0.000989582,0x00
"RX","data",0.788160942,0.000989582,0x00
"RX","data",0.789202622,0.000989582,0x0A
"RX","data",0.790244308,0.000989582,0x10
"RX","data",0.791285976,0.000989582,0xB6
"RX","data",0.792327646,0.000989582,0x10
"RX","data",0.793369326,0.000989582,0x33
"RX","data",0.794411002,0.000989582,0x20
"RX","data",0.795452686,0.000989582,0x20
"RX","data",0.796494356,0.000989582,0x01
"RX","data",0.797536036,0.000989582,0x52
"RX","data",0.798577716,0.000989582,0x17
"RX","data",0.799619394,0.000989582,0x01
"RX","data",0.800661064,0.000989582,0xFE
"RX","data",0.801702738,0.000989582,0x3E
"TX","data",0.809260142,0.000989582,0x03
"TX","data",0.81031534,0.000989582,0x00
"TX","data",0.811370634,0.000989582,0x00
"TX","data",0.81242589,0.000989582,0x00
"TX","data",0.813481002,0.000989582,0x18
"TX","data",0.814536086,0.000989582,0x01
"TX","data",0.81559129,0.000989582,0x10
"TX","data",0.81664653,0.000989582,0xB6
"TX","data",0.817701694,0.000989582,0xFF
"TX","data",0.818768984,0.000989582,0xFF
"TX","data",0.819824284,0.000989582,0x10
"TX","data",0.820879494,0.000989582,0x33
"TX","data",0.821934606,0.000989582,0x1B
"TX","data",0.822989614,0.000989582,0x71
"TX","data",0.824044792,0.000989582,0x20
"TX","data",0.82510008,0.000989582,0x20
"TX","data",0.826155268,0.000989582,0x19
"TX","data",0.827210516,0.000989582,0xC8
"TX","data",0.828265734,0.000989582,0x01
"TX","data",0.829320996,0.000989582,0x52
"TX","data",0.830376258,0.000989582,0x00
"TX","data",0.83143139,0.000989582,0x00
"TX","data",0.83248647,0.000989582,0x17
"TX","data",0.833541622,0.000989582,0x01
"TX","data",0.834596734,0.000989582,0x04
"TX","data",0.835651992,0.000989582,0x00
"TX","data",0.836707092,0.000989582,0x01
"TX","data",0.837762372,0.000989582,0x38
"TX","data",0.838821546,0.000989582,0xFD
"TX","data",0.839876708,0.000989582,0xF9
"TX","data",0.840931868,0.000989582,0x8A
"RX","data",1.11204047,0.000989582,0x03
"RX","data",1.113082156,0.000989582,0x00
"RX","data",1.114123826,0.000989582,0x00
"RX","data",1.115165508,0.000989582,0x00
"RX","data",1.116207184,0.000989582,0x0E
"RX","data",1.117248856,0.000989582,0x00
"RX","data",1.11829053,0.000989582,0x01
"RX","data",1.119332216,0.000989582,0x52
"RX","data",1.120373892,0.000989582,0x00
"RX","data",1.12141556,0.000989582,0xF0
"RX","data",1.122457246,0.000989582,0x01
"RX","data",1.12349892,0.000989582,0x52
"RX","data",1.124540592,0.000989582,0x06
"RX","data",1.125582272,0.000989582,0x11
"RX","data",1.126623948,0.000989582,0x4D
"RX","data",1.127665628,0.000989582,0x10
"RX","data",1.128707296,0.000989582,0xB5
"RX","data",1.129748978,0.000989582,0x10
"RX","data",1.130790656,0.000989582,0x99
"RX","data",1.131832328,0.000989582,0xFC
"RX","data",1.132874002,0.000989582,0x86
"TX","data",1.154958002,0.000989582,0x03
"TX","data",1.15601301,0.000989582,0x00
"TX","data",1.157067982,0.000989582,0x00
"TX","data",1.158123242,0.000989582,0x00
"TX","data",1.15917825,0.000989582,0x1D
"TX","data",1.160233364,0.000989582,0x01
"TX","data",1.161288364,0.000989582,0x00
"TX","data",1.162343108,0.000989582,0x01
"TX","data",1.16339808,0.000989582,0x00
"TX","data",1.164453024,0.000989582,0x01
"TX","data",1.16550799,0.000989582,0x52
"TX","data",1.16656294,0.000989582,0x00
"TX","data",1.167617834,0.000989582,0xFF
"TX","data",1.168672974,0.000989582,0xFF
"TX","data",1.169727816,0.000989582,0xF0
"TX","data",1.170782916,0.000989582,0x01
"TX","data",1.171837842,0.000989582,0x00
"TX","data",1.172892888,0.000989582,0x00
"TX","data",1.173947816,0.000989582,0x52
"TX","data",1.1750029,0.000989582,0x06
"TX","data",1.176057916,0.000989582,0xFF
"TX","data",1.177112928,0.000989582,0xFF
"TX","data",1.178167678,0.000989582,0x11
"TX","data",1.179222398,0.000989582,0x4D
"TX","data",1.180277512,0.000989582,0x00
"TX","data",1.181332578,0.000989582,0x00
"TX","data",1.182387756,0.000989582,0x10
"TX","data",1.18344299,0.000989582,0xB5
"TX","data",1.184498054,0.000989582,0x00
"TX","data",1.185553052,0.000989582,0x00
"TX","data",1.186608032,0.000989582,0x10
"TX","data",1.187662962,0.000989582,0x99
"TX","data",1.188717924,0.000989582,0xFF
"TX","data",1.189772986,0.000989582,0xFF
"TX","data",1.190827804,0.000989582,0xF6
"TX","data",1.191882894,0.000989582,0x7B
"RX","data",1.443003388,0.000989582,0x04
"RX","data",1.444045064,0.000989582,0x00
"RX","data",1.445086742,0.000989582,0x00
"RX","data",1.44612842,0.000989582,0x00
"RX","data",1.447170086,0.000989582,0x04
"RX","data",1.44821177,0.000989582,0x10
"RX","data",1.44925345,0.000989582,0x03
"RX","data",1.450295124,0.000989582,0x00
"RX","data",1.451336802,0.000989582,0x08
"RX","data",1.45237848,0.000989582,0xFF
"RX","data",1.453420152,0.000989582,0xDC
"TX","data",1.462036636,0.000989582,0x04
"TX","data",1.463091714,0.000989582,0x00
"TX","data",1.464146686,0.000989582,0x00
"TX","data",1.465201668,0.000989582,0x00
"TX","data",1.46625651,0.000989582,0x01
"TX","data",1.467311702,0.000989582,0x01
"TX","data",1.468366796,0.000989582,0xFF
"TX","data",1.46942185,0.000989582,0xF9
"RX","data",1.764070408,0.000989582,0x03
"RX","data",1.765112088,0.000989582,0x00
"RX","data",1.766153768,0.000989582,0x00
"RX","data",1.767195446,0.000989582,0x00
"RX","data",1.76823712,0.000989582,0x02
"RX","data",1.76927879,0.000989582,0x10
"RX","data",1.770320472,0.000989582,0x03
"RX","data",1.77136215,0.000989582,0xFF
"RX","data",1.772403822,0.000989582,0xE7
"TX","data",1.795144902,0.000989582,0x03
"TX","data",1.796199974,0.000989582,0x00
"TX","data",1.79725522,0.000989582,0x00
"TX","data",1.798310334,0.000989582,0x00
"TX","data",1.799365838,0.000989582,0x05
"TX","data",1.800421052,0.000989582,0x01
"TX","data",1.801476258,0.000989582,0x10
"TX","data",1.80253153,0.000989582,0x03
"TX","data",1.803586764,0.000989582,0x00
"TX","data",1.804649906,0.000989582,0x08
"TX","data",1.805704902,0.000989582,0xFF
"TX","data",1.806760114,0.000989582,0xDB
"RX","data",2.083054082,0.000989582,0x05
"RX","data",2.08409575,0.000989582,0x00
"RX","data",2.085137436,0.000989582,0x00
"RX","data",2.086179112,0.000989582,0x00
"RX","data",2.08722078,0.000989582,0x14
"RX","data",2.088262464,0.000989582,0x52
"RX","data",2.08930414,0.000989582,0x01
"RX","data",2.090345816,0.000989582,0x00
"RX","data",2.091387496,0.000989582,0x00
"RX","data",2.092429172,0.000989582,0x52
"RX","data",2.09347084,0.000989582,0x30
"RX","data",2.094512524,0.000989582,0x00
"RX","data",2.095554206,0.000989582,0x03
"RX","data",2.09659587,0.000989582,0x52
"RX","data",2.097637552,0.000989582,0x31
"RX","data",2.098679232,0.000989582,0x00
"RX","data",2.099720886,0.000989582,0x03
"RX","data",2.100762584,0.000989582,0x52
"RX","data",2.10180426,0.000989582,0x33
"RX","data",2.102845944,0.000989582,0x00
"RX","data",2.103887614,0.000989582,0x00
"RX","data",2.104929294,0.000989582,0xF2
"RX","data",2.105970974,0.000989582,0x00
"RX","data",2.107012636,0.000989582,0x01
"RX","data",2.108054324,0.000989582,0x00
"RX","data",2.109096,0.000989582,0xFD
"RX","data",2.110137676,0.000989582,0x10
"TX","data",2.122209316,0.000989582,0x05
"TX","data",2.123264286,0.000989582,0x00
"TX","data",2.124319288,0.000989582,0x00
"TX","data",2.125374578,0.000989582,0x00
"TX","data",2.126429364,0.000989582,0x01
"TX","data",2.127484474,0.000989582,0x01
"TX","data",2.12853941,0.000989582,0xFF
"TX","data",2.129594482,0.000989582,0xF8
"RX","data",2.42110045,0.000989582,0x03
"RX","data",2.422142128,0.000989582,0x00
"RX","data",2.423183808,0.000989582,0x00
"RX","data",2.424225486,0.000989582,0x00
"RX","data",2.425267164,0.000989582,0x24
"RX","data",2.426308842,0.000989582,0x10
"RX","data",2.427350516,0.000989582,0x00
"RX","data",2.428392194,0.000989582,0x10
"RX","data",2.429433868,0.000989582,0x01
"RX","data",2.43047555,0.000989582,0x10
"RX","data",2.431517218,0.000989582,0x03
"RX","data",2.4325589,0.000989582,0x10
"RX","data",2.433600574,0.000989582,0x02
"RX","data",2.434642252,0.000989582,0x01
"RX","data",2.435683928,0.000989582,0x30
"RX","data",2.436725598,0.000989582,0x10
"RX","data",2.437767276,0.000989582,0x10
"RX","data",2.438808958,0.000989582,0x10
"RX","data",2.439850636,0.000989582,0x11
"RX","data",2.44089231,0.000989582,0x10
"RX","data",2.441933982,0.000989582,0x23
"RX","data",2.442975664,0.000989582,0x10
"RX","data",2.44401734,0.000989582,0x22
"RX","data",2.445059014,0.000989582,0x11
"RX","data",2.446100694,0.000989582,0x21
"RX","data",2.447142368,0.000989582,0x11
"RX","data",2.448184046,0.000989582,0x08
"RX","data",2.449225728,0.000989582,0x11
"RX","data",2.4502674,0.000989582,0x02
"RX","data",2.451309082,0.000989582,0x11
"RX","data",2.452350758,0.000989582,0x01
"RX","data",2.453392434,0.000989582,0x11
"RX","data",2.454434102,0.000989582,0x20
"RX","data",2.455475784,0.000989582,0x11
"RX","data",2.45651746,0.000989582,0x00
"RX","data",2.457559134,0.000989582,0x10
"RX","data",2.458600814,0.000989582,0x31
"RX","data",2.45964249,0.000989582,0x11
"RX","data",2.460684168,0.000989582,0x09
"RX","data",2.461725844,0.000989582,0x11
"RX","data",2.46276752,0.000989582,0x42
"RX","data",2.463809196,0.000989582,0xFD
"RX","data",2.464850872,0.000989582,0x5B
"TX","data",2.48920839,0.000989582,0x03
"TX","data",2.490263332,0.000989582,0x00
"TX","data",2.49131839,0.000989582,0x00
"TX","data",2.492373508,0.000989582,0x00
"TX","data",2.493428456,0.000989582,0x49
"TX","data",2.494483638,0.000989582,0x01
"TX","data",2.495538952,0.000989582,0x10
"TX","data",2.496594196,0.000989582,0x00
"TX","data",2.497649298,0.000989582,0x00
"TX","data",2.498704494,0.000989582,0x01
"TX","data",2.499759862,0.000989582,0x10
"TX","data",2.500814904,0.000989582,0x01
"TX","data",2.501870108,0.000989582,0x00
"TX","data",2.50292523,0.000989582,0x03
"TX","data",2.503980394,0.000989582,0x10
"TX","data",2.505035562,0.000989582,0x03
"TX","data",2.506090724,0.000989582,0x00
"TX","data",2.507145848,0.000989582,0x08
"TX","data",2.508200834,0.000989582,0x10
"TX","data",2.50925595,0.000989582,0x02
"TX","data",2.510311068,0.000989582,0xFF
"TX","data",2.51136616,0.000989582,0xFF
"TX","data",2.512421604,0.000989582,0x01
"TX","data",2.51347677,0.000989582,0x30
"TX","data",2.514532018,0.000989582,0x00
"TX","data",2.515587242,0.000989582,0x00
"TX","data",2.516642478,0.000989582,0x10
"TX","data",2.517697552,0.000989582,0x10
"TX","data",2.518752838,0.000989582,0xFF
"TX","data",2.51980797,0.000989582,0xFF
"TX","data",2.520863198,0.000989582,0x10
"TX","data",2.521918306,0.000989582,0x11
"TX","data",2.522973462,0.000989582,0x00
"TX","data",2.52402862,0.000989582,0x00
"TX","data",2.525087896,0.000989582,0x10
"TX","data",2.526143008,0.000989582,0x23
"TX","data",2.527198388,0.000989582,0xFF
"TX","data",2.528253596,0.000989582,0xFF
"TX","data",2.529308472,0.000989582,0x10
"TX","data",2.530363494,0.000989582,0x22
"TX","data",2.531419122,0.000989582,0xFF
"TX","data",2.53247415,0.000989582,0xFF
"TX","data",2.533529258,0.000989582,0x11
"TX","data",2.534588486,0.000989582,0x21
"TX","data",2.535643582,0.000989582,0xFF
"TX","data",2.53669852,0.000989582,0xFF
"TX","data",2.537753578,0.000989582,0x11
"TX","data",2.538808766,0.000989582,0x08
"TX","data",2.539863956,0.000989582,0x00
"TX","data",2.540919242,0.000989582,0x00
"TX","data",2.541974468,0.000989582,0x11
"TX","data",2.543029614,0.000989582,0x02
"TX","data",2.544084716,0.000989582,0xFF
"TX","data",2.545139762,0.000989582,0xFF
"TX","data",2.546194872,0.000989582,0x11
"TX","data",2.547249994,0.000989582,0x01
"TX","data",2.54830522,0.000989582,0x00
"TX","data",2.549360546,0.000989582,0x00
"TX","data",2.550415492,0.000989582,0x11
"TX","data",2.551470662,0.000989582,0x20
"TX","data",2.552525898,0.000989582,0xFF
"TX","data",2.553581096,0.000989582,0xFF
"TX","data",2.554636272,0.000989582,0x11
"TX","data",2.55569136,0.000989582,0x00
"TX","data",2.556746462,0.000989582,0x00
"TX","data",2.557801682,0.000989582,0x00
"TX","data",2.558856852,0.000989582,0x10
"TX","data",2.55991224,0.000989582,0x31
"TX","data",2.56096755,0.000989582,0x00
"TX","data",2.562022866,0.000989582,0x00
"TX","data",2.563077966,0.000989582,0x11
"TX","data",2.564133036,0.000989582,0x09
"TX","data",2.565188194,0.000989582,0x00
"TX","data",2.566243234,0.000989582,0x00
"TX","data",2.567298286,0.000989582,0x11
"TX","data",2.568353322,0.000989582,0x42
"TX","data",2.569408542,0.000989582,0xFF
"TX","data",2.570463982,0.000989582,0xFF
"TX","data",2.571519306,0.000989582,0xED
"TX","data",2.57257447,0.000989582,0x39
"RX","data",2.776022008,0.000989582,0x03
"RX","data",2.777063678,0.000989582,0x00
"RX","data",2.778105356,0.000989582,0x00
"RX","data",2.779147034,0.000989582,0x00
"RX","data",2.780188712,0.000989582,0x28
"RX","data",2.781230388,0.000989582,0x10
"RX","data",2.782272062,0.000989582,0x00
"RX","data",2.783313714,0.000989582,0x10
"RX","data",2.784355416,0.000989582,0x01
"RX","data",2.785397092,0.000989582,0x10
"RX","data",2.786438766,0.000989582,0x02
"RX","data",2.787480442,0.000989582,0x10
"RX","data",2.788522122,0.000989582,0x03
"RX","data",2.789563798,0.000989582,0x10
"RX","data",2.790605462,0.000989582,0x10
"RX","data",2.791647156,0.000989582,0x10
"RX","data",2.792688814,0.000989582,0x11
"RX","data",2.79373051,0.000989582,0x10
"RX","data",2.794772184,0.000989582,0x22
"RX","data",2.795813858,0.000989582,0x10
"RX","data",2.796855534,0.000989582,0x23
"RX","data",2.79789722,0.000989582,0x10
"RX","data",2.798938892,0.000989582,0x30
"RX","data",2.79998057,0.000989582,0x10
"RX","data",2.80102223,0.000989582,0x31
"RX","data",2.802063918,0.000989582,0x10
"RX","data",2.803105602,0.000989582,0x33
"RX","data",2.804147276,0.000989582,0x14
"RX","data",2.80518895,0.000989582,0x00
"RX","data",2.806230624,0.000989582,0x14
"RX","data",2.8072723,0.000989582,0x01
"RX","data",2.808313982,0.000989582,0x14
"RX","data",2.809355656,0.000989582,0x02
"RX","data",2.81039733,0.000989582,0x14
