name,type,start_time,duration,"data"
"RX","data",0.153476418,0.000989582,0x03
"RX","data",0.154518092,0.000989582,0x00
"RX","data",0.155559772,0.000989582,0x00
"RX","data",0.156601456,0.000989582,0x00
"RX","data",0.157643132,0.000989582,0x02
"RX","data",0.158684806,0.000989582,0x16
"RX","data",0.159726478,0.000989582,0x37
"RX","data",0.160768162,0.000989582,0xFF
"RX","data",0.161809834,0.000989582,0xAD
"TX","data",0.169703028,0.000989582,0x03
"TX","data",0.170758198,0.000989582,0x00
"TX","data",0.171813318,0.000989582,0x00
"TX","data",0.17286829,0.000989582,0x00
"TX","data",0.173923524,0.000989582,0x01
"TX","data",0.174978646,0.000989582,0x00
"TX","data",0.176033804,0.000989582,0xFF
"TX","data",0.177089054,0.000989582,0xFB
"RX","data",0.472564256,0.000989582,0x03
"RX","data",0.473605926,0.000989582,0x00
"RX","data",0.474647612,0.000989582,0x00
"RX","data",0.475689294,0.000989582,0x00
"RX","data",0.476730974,0.000989582,0x0C
"RX","data",0.477772644,0.000989582,0x20
"RX","data",0.478814318,0.000989582,0x21
"RX","data",0.479856002,0.000989582,0x10
"RX","data",0.480897678,0.000989582,0x34
"RX","data",0.481939354,0.000989582,0x12
"RX","data",0.48298103,0.000989582,0x05
"RX","data",0.484022712,0.000989582,0x12
"RX","data",0.485064378,0.000989582,0x01
"RX","data",0.48610606,0.000989582,0x12
"RX","data",0.48714774,0.000989582,0x02
"RX","data",0.488189418,0.000989582,0x12
"RX","data",0.48923109,0.000989582,0x03
"RX","data",0.490272766,0.000989582,0xFF
"RX","data",0.491314442,0.000989582,0x18
"TX","data",0.510493938,0.000989582,0x03
"TX","data",0.511549142,0.000989582,0x00
"TX","data",0.512604148,0.000989582,0x00
"TX","data",0.513659032,0.000989582,0x00
"TX","data",0.5147142,0.000989582,0x19
"TX","data",0.51576928,0.000989582,0x01
"TX","data",0.516824396,0.000989582,0x20
"TX","data",0.51787949,0.000989582,0x21
"TX","data",0.518934512,0.000989582,0x00
"TX","data",0.51998946,0.000989582,0x00
"TX","data",0.52104466,0.000989582,0x10
"TX","data",0.522099554,0.000989582,0x34
"TX","data",0.52315473,0.000989582,0x00
"TX","data",0.524209668,0.000989582,0x00
"TX","data",0.525264486,0.000989582,0x12
"TX","data",0.526319496,0.000989582,0x05
"TX","data",0.527378606,0.000989582,0xFF
"TX","data",0.528433748,0.000989582,0xFF
"TX","data",0.529488834,0.000989582,0x12
"TX","data",0.530544028,0.000989582,0x01
"TX","data",0.5315992,0.000989582,0x00
"TX","data",0.532654386,0.000989582,0x00
"TX","data",0.533709736,0.000989582,0x12
"TX","data",0.534764838,0.000989582,0x02
"TX","data",0.53582002,0.000989582,0x00
"TX","data",0.536875196,0.000989582,0x00
"TX","data",0.537930536,0.000989582,0x12
"TX","data",0.538985616,0.000989582,0x03
"TX","data",0.540040818,0.000989582,0x00
"TX","data",0.541096108,0.000989582,0x00
"TX","data",0.542151352,0.000989582,0xFD
"TX","data",0.54320602,0.000989582,0x0C
"RX","data",0.801547986,0.000989582,0x03
"RX","data",0.802589678,0.000989582,0x00
"RX","data",0.803631344,0.000989582,0x00
"RX","data",0.804673022,0.000989582,0x00
"RX","data",0.805714698,0.000989582,0x0E
"RX","data",0.806756374,0.000989582,0x00
"RX","data",0.807798052,0.000989582,0x01
"RX","data",0.80883973,0.000989582,0x52
"RX","data",0.80988141,0.000989582,0x00
"RX","data",0.81092308,0.000989582,0xF0
"RX","data",0.81196476,0.000989582,0x01
"RX","data",0.813006434,0.000989582,0x52
"RX","data",0.814048112,0.000989582,0x06
"RX","data",0.815089788,0.000989582,0x11
"RX","data",0.816131468,0.000989582,0x4D
"RX","data",0.817173142,0.000989582,0x10
"RX","data",0.818214816,0.000989582,0xB5
"RX","data",0.819256494,0.000989582,0x10
"RX","data",0.82029817,0.000989582,0x99
"RX","data",0.821339854,0.000989582,0xFC
"RX","data",0.82238152,0.000989582,0x86
"TX","data",0.830674864,0.000989582,0x03
"TX","data",0.831729844,0.000989582,0x00
"TX","data",0.832784914,0.000989582,0x00
"TX","data",0.83383998,0.000989582,0x00
"TX","data",0.834895358,0.000989582,0x1D
"TX","data",0.83595058,0.000989582,0x01
"TX","data",0.837005698,0.000989582,0x00
"TX","data",0.838060852,0.000989582,0x01
"TX","data",0.839115784,0.000989582,0x00
"TX","data",0.840170916,0.000989582,0x01
"TX","data",0.841225916,0.000989582,0x52
"TX","data",0.842280856,0.000989582,0x00
"TX","data",0.843335888,0.000989582,0xFF
"TX","data",0.844390676,0.000989582,0xFF
"TX","data",0.84544585,0.000989582,0xF0
"TX","data",0.846500786,0.000989582,0x01
"TX","data",0.847555842,0.000989582,0x00
"TX","data",0.84861085,0.000989582,0x00
"TX","data",0.849666014,0.000989582,0x52
"TX","data",0.850720994,0.000989582,0x06
"TX","data",0.851776022,0.000989582,0xFF
"TX","data",0.852831246,0.000989582,0xFF
"TX","data",0.853886368,0.000989582,0x11
"TX","data",0.8549415,0.000989582,0x4D
"TX","data",0.855996634,0.000989582,0x00
"TX","data",0.857051674,0.000989582,0x00
"TX","data",0.858110706,0.000989582,0x10
"TX","data",0.859165816,0.000989582,0xB5
"TX","data",0.860221052,0.000989582,0x00
"TX","data",0.86127624,0.000989582,0x00
"TX","data",0.862331562,0.000989582,0x10
"TX","data",0.863386756,0.000989582,0x99
"TX","data",0.864441902,0.000989582,0xFF
"TX","data",0.865496972,0.000989582,0xFF
"TX","data",0.866552084,0.000989582,0xF6
"TX","data",0.867607118,0.000989582,0x7B
"RX","data",1.132510898,0.000989582,0x05
"RX","data",1.133552572,0.000989582,0x00
"RX","data",1.134594246,0.000989582,0x00
"RX","data",1.135635934,0.000989582,0x00
"RX","data",1.13667761,0.000989582,0x14
"RX","data",1.137719284,0.000989582,0x52
"RX","data",1.138760956,0.000989582,0x01
"RX","data",1.139802634,0.000989582,0x00
"RX","data",1.140844318,0.000989582,0x00
"RX","data",1.141885988,0.000989582,0x52
"RX","data",1.142927668,0.000989582,0x30
"RX","data",1.143969342,0.000989582,0x00
"RX","data",1.145011024,0.000989582,0x03
"RX","data",1.146052696,0.000989582,0x52
"RX","data",1.147094376,0.000989582,0x31
"RX","data",1.14813605,0.000989582,0x00
"RX","data",1.149177728,0.000989582,0x03
"RX","data",1.150219408,0.000989582,0x52
"RX","data",1.151261078,0.000989582,0x33
"RX","data",1.152302758,0.000989582,0x00
"RX","data",1.153344422,0.000989582,0x00
"RX","data",1.154386104,0.000989582,0xF2
"RX","data",1.155427792,0.000989582,0x00
"RX","data",1.156469462,0.000989582,0x01
"RX","data",1.157511134,0.000989582,0x00
"RX","data",1.158552818,0.000989582,0xFD
"RX","data",1.159594494,0.000989582,0x10
"TX","data",1.171727858,0.000989582,0x05
"TX","data",1.172783074,0.000989582,0x00
"TX","data",1.173838266,0.000989582,0x00
"TX","data",1.174893382,0.000989582,0x00
"TX","data",1.175948278,0.000989582,0x01
"TX","data",1.177003436,0.000989582,0x01
"TX","data",1.178058644,0.000989582,0xFF
"TX","data",1.179113768,0.000989582,0xF8
"RX","data",1.471494842,0.000989582,0x03
"RX","data",1.472536516,0.000989582,0x00
"RX","data",1.473578196,0.000989582,0x00
"RX","data",1.474619876,0.000989582,0x00
"RX","data",1.475661552,0.000989582,0x20
"RX","data",1.476703174,0.000989582,0x01
"RX","data",1.477744904,0.000989582,0xE0
"RX","data",1.478786578,0.000989582,0x01
"RX","data",1.479828256,0.000989582,0xE1
"RX","data",1.480869936,0.000989582,0x01
"RX","data",1.48191161,0.000989582,0xE2
"RX","data",1.482953292,0.000989582,0x01
"RX","data",1.483994968,0.000989582,0xE3
"RX","data",1.48503664,0.000989582,0x01
"RX","data",1.486078318,0.000989582,0xE4
"RX","data",1.48711999,0.000989582,0x01
"RX","data",1.488161672,0.000989582,0xE5
"RX","data",1.489203348,0.000989582,0x01
"RX","data",1.490245022,0.000989582,0xE6
"RX","data",1.491286704,0.000989582,0x01
"RX","data",1.492328384,0.000989582,0xE7
"RX","data",1.49337005,0.000989582,0x01
"RX","data",1.49441174,0.000989582,0xE8
"RX","data",1.495453406,0.000989582,0x01
"RX","data",1.496495094,0.000989582,0xE9
"RX","data",1.497536748,0.000989582,0x01
"RX","data",1.498578436,0.000989582,0xEA
"RX","data",1.499620116,0.000989582,0x01
"RX","data",1.500661792,0.000989582,0xEB
"RX","data",1.501703466,0.000989582,0x01
"RX","data",1.502745142,0.000989582,0xEC
"RX","data",1.50378682,0.000989582,0x01
"RX","data",1.5048285,0.000989582,0xED
"RX","data",1.505870174,0.000989582,0x01
"RX","data",1.50691185,0.000989582,0xEE
"RX","data",1.507953526,0.000989582,0x01
"RX","data",1.508995204,0.000989582,0xEF
"RX","data",1.510036882,0.000989582,0xF1
"RX","data",1.511078556,0.000989582,0x54
"TX","data",1.532338918,0.000989582,0x03
"TX","data",1.533394264,0.000989582,0x00
"TX","data",1.534449286,0.000989582,0x00
"TX","data",1.535504376,0.000989582,0x00
"TX","data",1.536559324,0.000989582,0x41
"TX","data",1.537614558,0.000989582,0x01
"TX","data",1.538669588,0.000989582,0x01
"TX","data",1.539724776,0.000989582,0xE0
"TX","data",1.54077992,0.000989582,0x00
"TX","data",1.541835058,0.000989582,0x41
"TX","data",1.54289006,0.000989582,0x01
"TX","data",1.54394507,0.000989582,0xE1
"TX","data",1.54500032,0.000989582,0x00
"TX","data",1.546055852,0.000989582,0x52
"TX","data",1.547111202,0.000989582,0x01
"TX","data",1.548166446,0.000989582,0xE2
"TX","data",1.549221512,0.000989582,0x00
"TX","data",1.550276594,0.000989582,0x55
"TX","data",1.5513317,0.000989582,0x01
"TX","data",1.552386796,0.000989582,0xE3
"TX","data",1.553441942,0.000989582,0x00
"TX","data",1.5544971,0.000989582,0x48
"TX","data",1.555552164,0.000989582,0x01
"TX","data",1.556607272,0.000989582,0xE4
"TX","data",1.55766229,0.000989582,0x00
"TX","data",1.558717456,0.000989582,0x32
"TX","data",1.559772602,0.000989582,0x01
"TX","data",1.560827598,0.000989582,0xE5
"TX","data",1.561882586,0.000989582,0x00
"TX","data",1.562937506,0.000989582,0x34
"TX","data",1.563992624,0.000989582,0x01
"TX","data",1.565047596,0.000989582,0xE6
"TX","data",1.56610252,0.000989582,0x00
"TX","data",1.56715771,0.000989582,0x4B
"TX","data",1.568220756,0.000989582,0x01
"TX","data",1.569276002,0.000989582,0xE7
"TX","data",1.570330966,0.000989582,0x00
"TX","data",1.571385966,0.000989582,0x48
"TX","data",1.572440844,0.000989582,0x01
"TX","data",1.573495946,0.000989582,0xE8
"TX","data",1.574551188,0.000989582,0x00
"TX","data",1.575606234,0.000989582,0x57
"TX","data",1.57666119,0.000989582,0x01
"TX","data",1.577716276,0.000989582,0xE9
"TX","data",1.57877138,0.000989582,0x00
"TX","data",1.579826504,0.000989582,0x41
"TX","data",1.580881792,0.000989582,0x01
"TX","data",1.5819369,0.000989582,0xEA
"TX","data",1.582992014,0.000989582,0x00
"TX","data",1.58404726,0.000989582,0x00
"TX","data",1.585102664,0.000989582,0x01
"TX","data",1.586157958,0.000989582,0xEB
"TX","data",1.587213162,0.000989582,0x00
"TX","data",1.588268244,0.000989582,0x00
"TX","data",1.589323408,0.000989582,0x01
"TX","data",1.59037859,0.000989582,0xEC
"TX","data",1.591433734,0.000989582,0x00
"TX","data",1.59248898,0.000989582,0x00
"TX","data",1.593548114,0.000989582,0x01
"TX","data",1.594603364,0.000989582,0xED
"TX","data",1.595658586,0.000989582,0x00
"TX","data",1.596713802,0.000989582,0x00
"TX","data",1.597768822,0.000989582,0x01
"TX","data",1.598823968,0.000989582,0xEE
"TX","data",1.599878876,0.000989582,0x00
"TX","data",1.600933952,0.000989582,0x00
"TX","data",1.601989092,0.000989582,0x01
"TX","data",1.603044218,0.000989582,0xEF
"TX","data",1.604099172,0.000989582,0x00
"TX","data",1.605154312,0.000989582,0x00
"TX","data",1.606209494,0.000989582,0xEE
"TX","data",1.60726468,0.000989582,0x71
"RX","data",1.8225622,0.000989582,0x03
"RX","data",1.823603884,0.000989582,0x00
"RX","data",1.824645566,0.000989582,0x00
"RX","data",1.825687238,0.000989582,0x00
"RX","data",1.826728918,0.000989582,0x28
"RX","data",1.82777059,0.000989582,0x10
"RX","data",1.828812264,0.000989582,0x00
"RX","data",1.829853944,0.000989582,0x10
"RX","data",1.830895618,0.000989582,0x01
"RX","data",1.831937294,0.000989582,0x10
"RX","data",1.832978972,0.000989582,0x02
"RX","data",1.834020644,0.000989582,0x10
"RX","data",1.835062312,0.000989582,0x03
"RX","data",1.836103998,0.000989582,0x10
"RX","data",1.837145682,0.000989582,0x10
"RX","data",1.838187352,0.000989582,0x10
"RX","data",1.839229036,0.000989582,0x11
"RX","data",1.840270714,0.000989582,0x10
"RX","data",1.841312388,0.000989582,0x22
"RX","data",1.842354062,0.000989582,0x10
"RX","data",1.843395738,0.000989582,0x23
"RX","data",1.844437418,0.000989582,0x10
"RX","data",1.845479094,0.000989582,0x30
"RX","data",1.84652077,0.000989582,0x10
"RX","data",1.847562448,0.000989582,0x31
"RX","data",1.84860412,0.000989582,0x10
"RX","data",1.8496458,0.000989582,0x33
"RX","data",1.850687474,0.000989582,0x14
"RX","data",1.851729152,0.000989582,0x00
"RX","data",1.852770834,0.000989582,0x14
"RX","data",1.853812506,0.000989582,0x01
"RX","data",1.854854182,0.000989582,0x14
"RX","data",1.855895856,0.000989582,0x02
"RX","data",1.856937536,0.000989582,0x14
"RX","data",1.857979208,0.000989582,0x03
"RX","data",1.859020888,0.000989582,0x14
"RX","data",1.860062566,0.000989582,0x04
"RX","data",1.86110424,0.000989582,0x14
"RX","data",1.862145912,0.000989582,0x05
"RX","data",1.863187592,0.000989582,0x14
"RX","data",1.86422927,0.000989582,0x06
"RX","data",1.86527094,0.000989582,0x14
"RX","data",1.866312632,0.000989582,0x0E
"RX","data",1.867354304,0.000989582,0x11
"RX","data",1.868395976,0.000989582,0x16
"RX","data",1.869437654,0.000989582,0xFD
"RX","data",1.870479332,0.000989582,0x3A
"TX","data",1.892810096,0.000989582,0x03
"TX","data",1.8938651,0.000989582,0x00
"TX","data",1.894920174,0.000989582,0x00
"TX","data",1.89597525,0.000989582,0x00
"TX","data",1.897030408,0.000989582,0x51
"TX","data",1.89808521,0.000989582,0x01
"TX","data",1.89914037,0.000989582,0x10
"TX","data",1.900195392,0.000989582,0x00
"TX","data",1.901250374,0.000989582,0x00
"TX","data",1.90230541,0.000989582,0x01
"TX","data",1.903360492,0.000989582,0x10
"TX","data",1.904415512,0.000989582,0x01
"TX","data",1.90547035,0.000989582,0x00
"TX","data",1.906525664,0.000989582,0x03
"TX","data",1.907580942,0.000989582,0x10
"TX","data",1.908636162,0.000989582,0x02
"TX","data",1.909691256,0.000989582,0xFF
"TX","data",1.910746212,0.000989582,0xFF
"TX","data",1.911801258,0.000989582,0x10
"TX","data",1.912856194,0.000989582,0x03
"TX","data",1.913911312,0.000989582,0x00
"TX","data",1.914966374,0.000989582,0x00
"TX","data",1.916021288,0.000989582,0x10
"TX","data",1.917076534,0.000989582,0x10
"TX","data",1.918131498,0.000989582,0xFF
"TX","data",1.919186654,0.000989582,0xFF
"TX","data",1.920241862,0.000989582,0x10
"TX","data",1.921296846,0.000989582,0x11
"TX","data",1.92235195,0.000989582,0x00
"TX","data",1.923407064,0.000989582,0x00
"TX","data",1.924462276,0.000989582,0x10
"TX","data",1.92551729,0.000989582,0x22
"TX","data",1.92657238,0.000989582,0xFF
"TX","data",1.927627568,0.000989582,0xFF
"TX","data",1.928682732,0.000989582,0x10
"TX","data",1.929737756,0.000989582,0x23
"TX","data",1.930792732,0.000989582,0xFF
"TX","data",1.931847808,0.000989582,0xFF
"TX","data",1.932902974,0.000989582,0x10
"TX","data",1.933958278,0.000989582,0x30
"TX","data",1.935013578,0.000989582,0x00
"TX","data",1.93606867,0.000989582,0x00
"TX","data",1.937123994,0.000989582,0x10
"TX","data",1.938178988,0.000989582,0x31
"TX","data",1.939234,0.000989582,0x00
"TX","data",1.940289148,0.000989582,0x00
"TX","data",1.94134424,0.000989582,0x10
"TX","data",1.94239937,0.000989582,0x33
"TX","data",1.94345461,0.000989582,0x1B
"TX","data",1.944509828,0.000989582,0x71
"TX","data",1.945576754,0.000989582,0x14
"TX","data",1.946631986,0.000989582,0x00
"TX","data",1.947686966,0.000989582,0x00
"TX","data",1.948742086,0.000989582,0x00
"TX","data",1.949797158,0.000989582,0x14
"TX","data",1.950852454,0.000989582,0x01
"TX","data",1.951907448,0.000989582,0x00
"TX","data",1.952962456,0.000989582,0x00
"TX","data",1.95401747,0.000989582,0x14
"TX","data",1.955072392,0.000989582,0x02
"TX","data",1.956127532,0.000989582,0x00
"TX","data",1.95718287,0.000989582,0x00
"TX","data",1.958238016,0.000989582,0x14
"TX","data",1.959293096,0.000989582,0x03
"TX","data",1.960348152,0.000989582,0x00
"TX","data",1.961403258,0.000989582,0x00
"TX","data",1.962458298,0.000989582,0x14
"TX","data",1.96351343,0.000989582,0x04
"TX","data",1.964568578,0.000989582,0x00
"TX","data",1.965635682,0.000989582,0x00
"TX","data",1.966690952,0.000989582,0x14
"TX","data",1.967745942,0.000989582,0x05
"TX","data",1.96880097,0.000989582,0x00
"TX","data",1.96985594,0.000989582,0x00
"TX","data",1.970911084,0.000989582,0x14
"TX","data",1.971970224,0.000989582,0x06
"TX","data",1.973025522,0.000989582,0x00
"TX","data",1.974080794,0.000989582,0x00
"TX","data",1.975135954,0.000989582,0x14
"TX","data",1.976191174,0.000989582,0x0E
"TX","data",1.977246068,0.000989582,0x00
"TX","data",1.978301176,0.000989582,0x00
"TX","data",1.979356238,0.000989582,0x11
"TX","data",1.98041139,0.000989582,0x16
"TX","data",1.981466428,0.000989582,0xFF
"TX","data",1.982521762,0.000989582,0xFF
"TX","data",1.983576972,0.000989582,0xF2
"TX","data",1.984632154,0.000989582,0x8A
"RX","data",2.181546274,0.000989582,0x03
"RX","data",2.182587952,0.000989582,0x00
"RX","data",2.183629628,0.000989582,0x00
"RX","data",2.184671302,0.000989582,0x00
"RX","data",2.185712988,0.000989582,0x14
"RX","data",2.186754662,0.000989582,0x11
"RX","data",2.18779634,0.000989582,0x20
"RX","data",2.188838008,0.000989582,0x11
"RX","data",2.189879696,0.000989582,0x00
"RX","data",2.190921368,0.000989582,0x11
"RX","data",2.191963042,0.000989582,0x21
"RX","data",2.19300472,0.000989582,0x11
"RX","data",2.194046396,0.000989582,0x08
"RX","data",2.19508807,0.000989582,0x11
"RX","data",2.196129752,0.000989582,0x02
"RX","data",2.197171428,0.000989582,0x10
"RX","data",2.198213102,0.000989582,0xB6
"RX","data",2.199254776,0.000989582,0x11
"RX","data",2.200296462,0.000989582,0x09
"RX","data",2.201338132,0.000989582,0x11
"RX","data",2.202379802,0.000989582,0x41
"RX","data",2.203421486,0.000989582,0x10
"RX","data",2.204463168,0.000989582,0x04
"RX","data",2.205504848,0.000989582,0x11
"RX","data",2.206546518,0.000989582,0x01
"RX","data",2.207588186,0.000989582,0xFD
"RX","data",2.208629872,0.000989582,0xF0
"TX","data",2.215921484,0.000989582,0x03
"TX","data",2.216976572,0.000989582,0x00
"TX","data",2.218031728,0.000989582,0x00
"TX","data",2.219086876,0.000989582,0x00
"TX","data",2.220141674,0.000989582,0x29
"TX","data",2.22119694,0.000989582,0x01
"TX","data",2.222251966,0.000989582,0x11
"TX","data",2.22330705,0.000989582,0x20
"TX","data",2.224362322,0.000989582,0xFF
"TX","data",2.225417564,0.000989582,0xFF
"TX","data",2.226472748,0.000989582,0x11
"TX","data",2.227527952,0.000989582,0x00
"TX","data",2.22858304,0.000989582,0x00
"TX","data",2.22963823,0.000989582,0x01
"TX","data",2.230693484,0.000989582,0x11
"TX","data",2.231748794,0.000989582,0x21
"TX","data",2.232803852,0.000989582,0xFF
"TX","data",2.23385903,0.000989582,0xFF
"TX","data",2.23491401,0.000989582,0x11
"TX","data",2.235969308,0.000989582,0x08
"TX","data",2.23702432,0.000989582,0x00
"TX","data",2.238079458,0.000989582,0x01
"TX","data",2.23913483,0.000989582,0x11
"TX","data",2.240197894,0.000989582,0x02
"TX","data",2.241252958,0.000989582,0xFF
"TX","data",2.24230799,0.000989582,0xFF
"TX","data",2.24336315,0.000989582,0x10
"TX","data",2.244418204,0.000989582,0xB6
"TX","data",2.245473256,0.000989582,0xFF
"TX","data",2.24652845,0.000989582,0xFF
"TX","data",2.24758355,0.000989582,0x11
"TX","data",2.248638448,0.000989582,0x09
"TX","data",2.2496937,0.000989582,0x00
"TX","data",2.25074874,0.000989582,0x00
"TX","data",2.251803802,0.000989582,0x11
"TX","data",2.252858942,0.000989582,0x41
"TX","data",2.253913974,0.000989582,0xFF
"TX","data",2.25496915,0.000989582,0xFF
"TX","data",2.256024278,0.000989582,0x10
"TX","data",2.257079166,0.000989582,0x04
"TX","data",2.258134352,0.000989582,0xFF
"TX","data",2.259189542,0.000989582,0xFF
"TX","data",2.26024469,0.000989582,0x11
"TX","data",2.261299796,0.000989582,0x01
"TX","data",2.26235499,0.000989582,0x00
"TX","data",2.263410228,0.000989582,0x00
"TX","data",2.264465488,0.000989582,0xF1
"TX","data",2.26552471,0.000989582,0xE4
"RX","data",2.519488458,0.000989582,0x03
"RX","data",2.520530142,0.000989582,0x00
"RX","data",2.521571818,0.000989582,0x00
"RX","data",2.522613494,0.000989582,0x00
"RX","data",2.523655168,0.000989582,0x02
"RX","data",2.52469685,0.000989582,0x16
"RX","data",2.52573852,0.000989582,0x38
"RX","data",2.526780202,0.000989582,0xFF
