name,type,start_time,duration,"data"
"RX","data",0.162951864,0.000989582,0x05
"RX","data",0.163993552,0.000989582,0x00
"RX","data",0.165035216,0.000989582,0x00
"RX","data",0.166076906,0.000989582,0x00
"RX","data",0.167118588,0.000989582,0x14
"RX","data",0.168160258,0.000989582,0x52
"RX","data",0.169201936,0.000989582,0x01
"RX","data",0.170243618,0.000989582,0x00
"RX","data",0.17128529,0.000989582,0x00
"RX","data",0.172326976,0.000989582,0x52
"RX","data",0.173368642,0.000989582,0x30
"RX","data",0.174410324,0.000989582,0x00
"RX","data",0.175452,0.000989582,0x03
"RX","data",0.17649368,0.000989582,0x52
"RX","data",0.177535356,0.000989582,0x31
"RX","data",0.178577036,0.000989582,0x00
"RX","data",0.179618718,0.000989582,0x03
"RX","data",0.180660388,0.000989582,0x52
"RX","data",0.181702066,0.000989582,0x33
"RX","data",0.18274375,0.000989582,0x00
"RX","data",0.183785428,0.000989582,0x00
"RX","data",0.184827098,0.000989582,0xF2
"RX","data",0.185868782,0.000989582,0x00
"RX","data",0.186910456,0.000989582,0x01
"RX","data",0.187952134,0.000989582,0x00
"RX","data",0.188993812,0.000989582,0xFD
"RX","data",0.190035486,0.000989582,0x10
"TX","data",0.203207106,0.000989582,0x05
"TX","data",0.204266284,0.000989582,0x00
"TX","data",0.205321428,0.000989582,0x00
"TX","data",0.20637663,0.000989582,0x00
"TX","data",0.207431622,0.000989582,0x01
"TX","data",0.208486794,0.000989582,0x01
"TX","data",0.209541818,0.000989582,0xFF
"TX","data",0.210596958,0.000989582,0xF8
"RX","data",0.499435876,0.000989582,0x03
"RX","data",0.500477564,0.000989582,0x00
"RX","data",0.501519246,0.000989582,0x00
"RX","data",0.502560918,0.000989582,0x00
"RX","data",0.503602592,0.000989582,0x28
"RX","data",0.504644254,0.000989582,0x10
"RX","data",0.505685954,0.000989582,0x00
"RX","data",0.506727626,0.000989582,0x10
"RX","data",0.50776931,0.000989582,0x01
"RX","data",0.50881099,0.000989582,0x10
"RX","data",0.509852658,0.000989582,0x02
"RX","data",0.510894336,0.000989582,0x10
"RX","data",0.511936016,0.000989582,0x03
"RX","data",0.5129777,0.000989582,0x10
"RX","data",0.514019374,0.000989582,0x10
"RX","data",0.515061022,0.000989582,0x10
"RX","data",0.516102726,0.000989582,0x11
"RX","data",0.517144406,0.000989582,0x10
"RX","data",0.518186086,0.000989582,0x22
"RX","data",0.51922776,0.000989582,0x10
"RX","data",0.520269432,0.000989582,0x23
"RX","data",0.52131111,0.000989582,0x10
"RX","data",0.522352792,0.000989582,0x30
"RX","data",0.52339447,0.000989582,0x10
"RX","data",0.524436148,0.000989582,0x31
"RX","data",0.525477818,0.000989582,0x10
"RX","data",0.5265195,0.000989582,0x33
"RX","data",0.52756118,0.000989582,0x14
"RX","data",0.528602856,0.000989582,0x00
"RX","data",0.529644532,0.000989582,0x14
"RX","data",0.53068621,0.000989582,0x01
"RX","data",0.53172789,0.000989582,0x14
"RX","data",0.532769574,0.000989582,0x02
"RX","data",0.533811238,0.000989582,0x14
"RX","data",0.534852924,0.000989582,0x03
"RX","data",0.535894602,0.000989582,0x14
"RX","data",0.536936276,0.000989582,0x04
"RX","data",0.537977952,0.000989582,0x14
"RX","data",0.53901963,0.000989582,0x05
"RX","data",0.540061306,0.000989582,0x14
"RX","data",0.541102984,0.000989582,0x06
"RX","data",0.542144662,0.000989582,0x14
"RX","data",0.543186338,0.000989582,0x0E
"RX","data",0.544228016,0.000989582,0x11
"RX","data",0.545269694,0.000989582,0x16
"RX","data",0.54631138,0.000989582,0xFD
"RX","data",0.547353048,0.000989582,0x3A
"TX","data",0.563145376,0.000989582,0x03
"TX","data",0.564200546,0.000989582,0x00
"TX","data",0.56525575,0.000989582,0x00
"TX","data",0.566311028,0.000989582,0x00
"TX","data",0.567365938,0.000989582,0x51
"TX","data",0.568421206,0.000989582,0x01
"TX","data",0.569476432,0.000989582,0x10
"TX","data",0.570531902,0.000989582,0x00
"TX","data",0.571587304,0.000989582,0x00
"TX","data",0.572642592,0.000989582,0x01
"TX","data",0.57369777,0.000989582,0x10
"TX","data",0.574753026,0.000989582,0x01
"TX","data",0.575808286,0.000989582,0x00
"TX","data",0.57686348,0.000989582,0x04
"TX","data",0.577918848,0.000989582,0x10
"TX","data",0.578974242,0.000989582,0x02
"TX","data",0.580029526,0.000989582,0x00
"TX","data",0.581084698,0.000989582,0xC3
"TX","data",0.582139852,0.000989582,0x10
"TX","data",0.58319502,0.000989582,0x03
"TX","data",0.584250404,0.000989582,0x00
"TX","data",0.585305552,0.000989582,0x00
"TX","data",0.58636093,0.000989582,0x10
"TX","data",0.587416104,0.000989582,0x10
"TX","data",0.588471436,0.000989582,0xFF
"TX","data",0.589526778,0.000989582,0xFF
"TX","data",0.590582072,0.000989582,0x10
"TX","data",0.59163732,0.000989582,0x11
"TX","data",0.592692564,0.000989582,0x00
"TX","data",0.593747804,0.000989582,0x00
"TX","data",0.594803044,0.000989582,0x10
"TX","data",0.59585801,0.000989582,0x22
"TX","data",0.596913346,0.000989582,0xFF
"TX","data",0.597968638,0.000989582,0xFF
"TX","data",0.599024032,0.000989582,0x10
"TX","data",0.600079236,0.000989582,0x23
"TX","data",0.601134358,0.000989582,0xFF
"TX","data",0.602189608,0.000989582,0xFF
"TX","data",0.603244794,0.000989582,0x10
"TX","data",0.604300128,0.000989582,0x30
"TX","data",0.605355372,0.000989582,0x00
"TX","data",0.606410648,0.000989582,0x00
"TX","data",0.607465968,0.000989582,0x10
"TX","data",0.60852931,0.000989582,0x31
"TX","data",0.609584456,0.000989582,0x00
"TX","data",0.610639672,0.000989582,0x00
"TX","data",0.6116949,0.000989582,0x10
"TX","data",0.612750212,0.000989582,0x33
"TX","data",0.613805454,0.000989582,0x1B
"TX","data",0.61486091,0.000989582,0x71
"TX","data",0.61591611,0.000989582,0x14
"TX","data",0.616971504,0.000989582,0x00
"TX","data",0.618026824,0.000989582,0x00
"TX","data",0.61908216,0.000989582,0x00
"TX","data",0.620137412,0.000989582,0x14
"TX","data",0.621192672,0.000989582,0x01
"TX","data",0.622247908,0.000989582,0x00
"TX","data",0.623303214,0.000989582,0x00
"TX","data",0.624358396,0.000989582,0x14
"TX","data",0.625413664,0.000989582,0x02
"TX","data",0.62646904,0.000989582,0x00
"TX","data",0.627524514,0.000989582,0x00
"TX","data",0.62858389,0.000989582,0x14
"TX","data",0.62963912,0.000989582,0x03
"TX","data",0.630694296,0.000989582,0x00
"TX","data",0.631749506,0.000989582,0x00
"TX","data",0.63280487,0.000989582,0x14
"TX","data",0.63385993,0.000989582,0x04
"TX","data",0.634915346,0.000989582,0x00
"TX","data",0.63597053,0.000989582,0x00
"TX","data",0.63702589,0.000989582,0x14
"TX","data",0.638081078,0.000989582,0x05
"TX","data",0.639136376,0.000989582,0x00
"TX","data",0.640191638,0.000989582,0x00
"TX","data",0.6412468,0.000989582,0x14
"TX","data",0.642302046,0.000989582,0x06
"TX","data",0.64335735,0.000989582,0x00
"TX","data",0.6444125,0.000989582,0x00
"TX","data",0.645467788,0.000989582,0x14
"TX","data",0.646522936,0.000989582,0x0E
"TX","data",0.647578238,0.000989582,0x00
"TX","data",0.648645574,0.000989582,0x00
"TX","data",0.64970073,0.000989582,0x11
"TX","data",0.650756058,0.000989582,0x16
"TX","data",0.651811448,0.000989582,0xFF
"TX","data",0.65286669,0.000989582,0xFF
"TX","data",0.65392185,0.000989582,0xF3
"TX","data",0.654977196,0.000989582,0xC4
"RX","data",0.85842025,0.000989582,0x03
"RX","data",0.859461928,0.000989582,0x00
"RX","data",0.860503608,0.000989582,0x00
"RX","data",0.86154529,0.000989582,0x00
"RX","data",0.86258696,0.000989582,0x14
"RX","data",0.863628638,0.000989582,0x11
"RX","data",0.864670318,0.000989582,0x20
"RX","data",0.865711996,0.000989582,0x11
"RX","data",0.866753666,0.000989582,0x00
"RX","data",0.867795348,0.000989582,0x11
"RX","data",0.868837028,0.000989582,0x21
"RX","data",0.869878702,0.000989582,0x11
"RX","data",0.870920384,0.000989582,0x08
"RX","data",0.871962058,0.000989582,0x11
"RX","data",0.87300373,0.000989582,0x02
"RX","data",0.87404542,0.000989582,0x10
"RX","data",0.875087094,0.000989582,0xB6
"RX","data",0.876128772,0.000989582,0x11
"RX","data",0.877170454,0.000989582,0x09
"RX","data",0.878212124,0.000989582,0x11
"RX","data",0.879253804,0.000989582,0x41
"RX","data",0.880295478,0.000989582,0x10
"RX","data",0.881337154,0.000989582,0x04
"RX","data",0.882378828,0.000989582,0x11
"RX","data",0.883420516,0.000989582,0x01
"RX","data",0.884462184,0.000989582,0xFD
"RX","data",0.885503868,0.000989582,0xF0
"TX","data",0.903196526,0.000989582,0x03
"TX","data",0.904251758,0.000989582,0x00
"TX","data",0.9053071,0.000989582,0x00
"TX","data",0.906362342,0.000989582,0x00
"TX","data",0.907417688,0.000989582,0x29
"TX","data",0.908473034,0.000989582,0x01
"TX","data",0.909528386,0.000989582,0x11
"TX","data",0.910583726,0.000989582,0x20
"TX","data",0.911638882,0.000989582,0xFF
"TX","data",0.912694118,0.000989582,0xFF
"TX","data",0.913749382,0.000989582,0x11
"TX","data",0.914804706,0.000989582,0x00
"TX","data",0.915859832,0.000989582,0x00
"TX","data",0.916915102,0.000989582,0x00
"TX","data",0.917970198,0.000989582,0x11
"TX","data",0.919025482,0.000989582,0x21
"TX","data",0.920080818,0.000989582,0xFF
"TX","data",0.921136224,0.000989582,0xFF
"TX","data",0.922191538,0.000989582,0x11
"TX","data",0.923246672,0.000989582,0x08
"TX","data",0.924301878,0.000989582,0x00
"TX","data",0.925357198,0.000989582,0x00
"TX","data",0.926412544,0.000989582,0x11
"TX","data",0.927467688,0.000989582,0x02
"TX","data",0.92852287,0.000989582,0xFF
"TX","data",0.929578166,0.000989582,0xFF
"TX","data",0.930633408,0.000989582,0x10
"TX","data",0.931688576,0.000989582,0xB6
"TX","data",0.93274392,0.000989582,0xFF
"TX","data",0.93379925,0.000989582,0xFF
"TX","data",0.934854666,0.000989582,0x11
"TX","data",0.935909812,0.000989582,0x09
"TX","data",0.93696465,0.000989582,0x00
"TX","data",0.938019986,0.000989582,0x00
"TX","data",0.93907517,0.000989582,0x11
"TX","data",0.94013052,0.000989582,0x41
"TX","data",0.941185788,0.000989582,0xFF
"TX","data",0.942241044,0.000989582,0xFF
"TX","data",0.9432965,0.000989582,0x10
"TX","data",0.94435168,0.000989582,0x04
"TX","data",0.945407076,0.000989582,0xFF
"TX","data",0.946462268,0.000989582,0xFF
"TX","data",0.94751765,0.000989582,0x11
"TX","data",0.948573086,0.000989582,0x01
"TX","data",0.949628314,0.000989582,0x00
"TX","data",0.950683524,0.000989582,0x00
"TX","data",0.951738682,0.000989582,0xF1
"TX","data",0.952794012,0.000989582,0xE6
"RX","data",1.196466894,0.000989582,0x03
"RX","data",1.197508572,0.000989582,0x00
"RX","data",1.19855026,0.000989582,0x00
"RX","data",1.199591928,0.000989582,0x00
"RX","data",1.200633606,0.000989582,0x02
"RX","data",1.201675284,0.000989582,0x16
"RX","data",1.202716956,0.000989582,0x05
"RX","data",1.203758636,0.000989582,0xFF
"RX","data",1.204800312,0.000989582,0xDF
"TX","data",1.224566046,0.000989582,0x03
"TX","data",1.225621294,0.000989582,0x00
"TX","data",1.226676496,0.000989582,0x00
"TX","data",1.227731806,0.000989582,0x00
"TX","data",1.22878701,0.000989582,0x01
"TX","data",1.229842124,0.000989582,0x00
"TX","data",1.230897488,0.000989582,0xFF
"TX","data",1.231952734,0.000989582,0xFB
"RX","data",1.515450812,0.000989582,0x03
"RX","data",1.51649249,0.000989582,0x00
"RX","data",1.517534172,0.000989582,0x00
"RX","data",1.518575848,0.000989582,0x00
"RX","data",1.519617516,0.000989582,0x12
"RX","data",1.520659206,0.000989582,0x10
"RX","data",1.52170088,0.000989582,0x23
"RX","data",1.522742556,0.000989582,0x01
"RX","data",1.523784236,0.000989582,0x16
"RX","data",1.524825918,0.000989582,0x01
"RX","data",1.525867588,0.000989582,0x18
"RX","data",1.526909264,0.000989582,0x01
"RX","data",1.527950948,0.000989582,0x19
"RX","data",1.528992622,0.000989582,0x01
"RX","data",1.530034276,0.000989582,0x1B
"RX","data",1.531075984,0.000989582,0x01
"RX","data",1.53211766,0.000989582,0x1C
"RX","data",1.533159336,0.000989582,0x01
"RX","data",1.534201006,0.000989582,0x1E
"RX","data",1.535242682,0.000989582,0x01
"RX","data",1.536284362,0.000989582,0x1F
"RX","data",1.537326044,0.000989582,0x01
"RX","data",1.538367718,0.000989582,0x21
"RX","data",1.539409396,0.000989582,0xFE
"RX","data",1.540451074,0.000989582,0xD3
"TX","data",1.545935312,0.000989582,0x03
"TX","data",1.546990516,0.000989582,0x00
"TX","data",1.548045722,0.000989582,0x00
"TX","data",1.549100872,0.000989582,0x00
"TX","data",1.550155674,0.000989582,0x01
"TX","data",1.551210958,0.000989582,0x00
"TX","data",1.552265938,0.000989582,0xFF
"TX","data",1.5533211,0.000989582,0xFB
"RX","data",1.8514141,0.000989582,0x03
"RX","data",1.85245578,0.000989582,0x00
"RX","data",1.853497456,0.000989582,0x00
"RX","data",1.854539132,0.000989582,0x00
"RX","data",1.855580812,0.000989582,0x0E
"RX","data",1.856622492,0.000989582,0x00
"RX","data",1.85766417,0.000989582,0x01
"RX","data",1.858705842,0.000989582,0x52
"RX","data",1.859747522,0.000989582,0x00
"RX","data",1.8607892,0.000989582,0xF0
"RX","data",1.861830872,0.000989582,0x01
"RX","data",1.862872552,0.000989582,0x52
"RX","data",1.863914226,0.000989582,0x06
"RX","data",1.864955912,0.000989582,0x11
"RX","data",1.865997584,0.000989582,0x4D
"RX","data",1.86703927,0.000989582,0x10
"RX","data",1.868080944,0.000989582,0xB5
"RX","data",1.869122616,0.000989582,0x10
"RX","data",1.8701643,0.000989582,0x99
"RX","data",1.871205972,0.000989582,0xFC
"RX","data",1.872247648,0.000989582,0x86
"TX","data",1.884708934,0.000989582,0x03
"TX","data",1.885764016,0.000989582,0x00
"TX","data",1.886819206,0.000989582,0x00
"TX","data",1.887874482,0.000989582,0x00
"TX","data",1.888929834,0.000989582,0x1D
"TX","data",1.889989062,0.000989582,0x01
"TX","data",1.891044478,0.000989582,0x00
"TX","data",1.89209989,0.000989582,0x01
"TX","data",1.89315518,0.000989582,0x00
"TX","data",1.894210264,0.000989582,0x01
"TX","data",1.895265478,0.000989582,0x52
"TX","data",1.896320756,0.000989582,0x00
"TX","data",1.897376032,0.000989582,0xFF
"TX","data",1.89843129,0.000989582,0xFF
"TX","data",1.899498554,0.000989582,0xF0
"TX","data",1.900553892,0.000989582,0x01
"TX","data",1.901609302,0.000989582,0x00
"TX","data",1.90266462,0.000989582,0x00
"TX","data",1.903719792,0.000989582,0x52
"TX","data",1.904775122,0.000989582,0x06
"TX","data",1.905830482,0.000989582,0xFF
"TX","data",1.90688578,0.000989582,0xFF
"TX","data",1.907941114,0.000989582,0x11
"TX","data",1.908996268,0.000989582,0x4D
"TX","data",1.910051672,0.000989582,0x00
"TX","data",1.911106976,0.000989582,0x00
"TX","data",1.912162234,0.000989582,0x10
"TX","data",1.913217508,0.000989582,0xB5
"TX","data",1.914272742,0.000989582,0x00
"TX","data",1.915327978,0.000989582,0x00
"TX","data",1.916383234,0.000989582,0x10
"TX","data",1.917438532,0.000989582,0x99
"TX","data",1.918493728,0.000989582,0xFF
"TX","data",1.919560936,0.000989582,0xFF
"TX","data",1.92061619,0.000989582,0xF6
"TX","data",1.921671342,0.000989582,0x7B
"RX","data",2.182481448,0.000989582,0x05
"RX","data",2.18352312,0.000989582,0x00
"RX","data",2.184564802,0.000989582,0x00
"RX","data",2.18560648,0.000989582,0x00
"RX","data",2.186648156,0.000989582,0x14
"RX","data",2.187689836,0.000989582,0x52
"RX","data",2.188731518,0.000989582,0x01
"RX","data",2.189773192,0.000989582,0x00
"RX","data",2.19081487,0.000989582,0x00
"RX","data",2.19185655,0.000989582,0x52
"RX","data",2.192898218,0.000989582,0x30
"RX","data",2.1939399,0.000989582,0x00
"RX","data",2.194981578,0.000989582,0x03
"RX","data",2.196023256,0.000989582,0x52
"RX","data",2.197064928,0.000989582,0x31
"RX","data",2.198106602,0.000989582,0x00
"RX","data",2.19914829,0.000989582,0x03
"RX","data",2.200189958,0.000989582,0x52
"RX","data",2.201231644,0.000989582,0x33
"RX","data",2.20227332,0.000989582,0x00
"RX","data",2.203314996,0.000989582,0x00
"RX","data",2.204356676,0.000989582,0xF2
"RX","data",2.205398352,0.000989582,0x00
"RX","data",2.206440032,0.000989582,0x01
"RX","data",2.207481704,0.000989582,0x00
"RX","data",2.208523384,0.000989582,0xFD
"RX","data",2.209565064,0.000989582,0x10
"TX","data",2.224945288,0.000989582,0x05
"TX","data",2.226000458,0.000989582,0x00
"TX","data",2.227055564,0.000989582,0x00
"TX","data",2.22811084,0.000989582,0x00
"TX","data",2.229165788,0.000989582,0x01
"TX","data",2.23022095,0.000989582,0x01
"TX","data",2.231275858,0.000989582,0xFF
"TX","data",2.232330934,0.000989582,0xF8
"RX","data",2.520528076,0.000989582,0x03
"RX","data",2.521569766,0.000989582,0x00
"RX","data",2.52261144,0.000989582,0x00
"RX","data",2.523653116,0.000989582,0x00
"RX","data",2.524694792,0.000989582,0x28
"RX","data",2.52573647,0.000989582,0x10
"RX","data",2.526778148,0.000989582,0x00
"RX","data",2.527819826,0.000989582,0x10
"RX","data",2.528861504,0.000989582,0x01
"RX","data",2.52990318,0.000989582,0x10
"RX","data",2.530944856,0.000989582,0x02
"RX","data",2.531986536,0.000989582,0x10
"RX","data",2.533028218,0.000989582,0x03
"RX","data",2.534069894,0.000989582,0x10
"RX","data",2.53511157,0.000989582,0x10
"RX","data",2.536153248,0.000989582,0x10
"RX","data",2.537194928,0.000989582,0x11
"RX","data",2.538236604,0.000989582,0x10
"RX","data",2.539278276,0.000989582,0x22
"RX","data",2.540319954,0.000989582,0x10
"RX","data",2.541361634,0.000989582,0x23
"RX","data",2.542403312,0.000989582,0x10
"RX","data",2.543444988,0.000989582,0x30
"RX","data",2.544486666,0.000989582,0x10
"RX","data",2.545528342,0.000989582,0x31
"RX","data",2.546570022,0.000989582,0x10
"RX","data",2.5476117,0.000989582,0x33
"RX","data",2.548653376,0.000989582,0x14
"RX","data",2.549695054,0.000989582,0x00
"RX","data",2.550736736,0.000989582,0x14
"RX","data",2.551778408,0.000989582,0x01
"RX","data",2.552820088,0.000989582,0x14
"RX","data",2.553861764,0.000989582,0x02
"RX","data",2.554903438,0.000989582,0x14
"RX","data",2.55594512,0.000989582,0x03
"RX","data",2.556986794,0.000989582,0x14
"RX","data",2.558028472,0.000989582,0x04
"RX","data",2.559070146,0.000989582,0x14
"RX","data",2.560111826,0.000989582,0x05
"RX","data",2.561153504,0.000989582,0x14
"RX","data",2.56219518,0.000989582,0x06
"RX","data",2.563236858,0.000989582,0x14
"RX","data",2.564278538,0.000989582,0x0E
"RX","data",2.56532021,0.000989582,0x11
"RX","data",2.56636189,0.000989582,0x16
"RX","data",2.56740357,0.000989582,0xFD
"RX","data",2.56844525,0.000989582,0x3A
"TX","data",2.584793592,0.000989582,0x03
"TX","data",2.585848788,0.000989582,0x00
"TX","data",2.586903906,0.000989582,0x00
"TX","data",2.587959178,0.000989582,0x00
"TX","data",2.58901434,0.000989582,0x51
"TX","data",2.590069794,0.000989582,0x01
"TX","data",2.591125116,0.000989582,0x10
"TX","data",2.59218036,0.000989582,0x00
"TX","data",2.59323556,0.000989582,0x00
"TX","data",2.594290658,0.000989582,0x01
"TX","data",2.595346086,0.000989582,0x10
"TX","data",2.596401296,0.000989582,0x01
"TX","data",2.59745646,0.000989582,0x00
"TX","data",2.59851159,0.000989582,0x04
"TX","data",2.599566624,0.000989582,0x10
"TX","data",2.600633916,0.000989582,0x02
"TX","data",2.60168906,0.000989582,0x00
"TX","data",2.60274415,0.000989582,0xC3
"TX","data",2.603799332,0.000989582,0x10
"TX","data",2.604854586,0.000989582,0x03
"TX","data",2.605909822,0.000989582,0x00
"TX","data",2.60696507,0.000989582,0x00
"TX","data",2.608020358,0.000989582,0x10
"TX","data",2.609075596,0.000989582,0x10
"TX","data",2.610130918,0.000989582,0xFF
"TX","data",2.611186096,0.000989582,0xFF
"TX","data",2.612241302,0.000989582,0x10
"TX","data",2.613296392,0.000989582,0x11
"TX","data",2.614351684,0.000989582,0x00
"TX","data",2.615406958,0.000989582,0x00
"TX","data",2.616462186,0.000989582,0x10
"TX","data",2.61751738,0.000989582,0x22
"TX","data",2.618572648,0.000989582,0xFF
"TX","data",2.619628016,0.000989582,0xFF
"TX","data",2.620695272,0.000989582,0x10
"TX","data",2.621750496,0.000989582,0x23
"TX","data",2.622805716,0.000989582,0xFF
"TX","data",2.623861034,0.000989582,0xFF
"TX","data",2.624916372,0.000989582,0x10
"TX","data",2.625971582,0.000989582,0x30
"TX","data",2.627026742,0.000989582,0x00
"TX","data",2.628081796,0.000989582,0x00
"TX","data",2.62913709,0.000989582,0x10
"TX","data",2.63019225,0.000989582,0x31
"TX","data",2.631247458,0.000989582,0x00
"TX","data",2.632302806,0.000989582,0x00
"TX","data",2.633358112,0.000989582,0x10
"TX","data",2.634413424,0.000989582,0x33
"TX","data",2.635468786,0.000989582,0x1B
"TX","data",2.636524246,0.000989582,0x71
"TX","data",2.63757973,0.000989582,0x14
"TX","data",2.63863496,0.000989582,0x00
"TX","data",2.639690204,0.000989582,0x00
"TX","data",2.64075757,0.000989582,0x00
"TX","data",2.641812942,0.000989582,0x14
