name,type,start_time,duration,"data"
"RX","data",0.175196574,0.000989582,0x03
"RX","data",0.176238252,0.000989582,0x00
"RX","data",0.177279928,0.000989582,0x00
"RX","data",0.178321606,0.000989582,0x00
"RX","data",0.179363284,0.000989582,0x02
"RX","data",0.180404958,0.000989582,0x16
"RX","data",0.181446636,0.000989582,0x09
"RX","data",0.182488316,0.000989582,0xFF
"RX","data",0.183529986,0.000989582,0xDB
"TX","data",0.198640514,0.000989582,0x03
"TX","data",0.199695936,0.000989582,0x00
"TX","data",0.20075146,0.000989582,0x00
"TX","data",0.201806738,0.000989582,0x00
"TX","data",0.202861936,0.000989582,0x01
"TX","data",0.203917018,0.000989582,0x00
"TX","data",0.204972408,0.000989582,0xFF
"TX","data",0.206027728,0.000989582,0xFB
"RX","data",0.494180338,0.000989582,0x03
"RX","data",0.495222022,0.000989582,0x00
"RX","data",0.496263702,0.000989582,0x00
"RX","data",0.49730538,0.000989582,0x00
"RX","data",0.498347052,0.000989582,0x16
"RX","data",0.499388734,0.000989582,0x11
"RX","data",0.500430406,0.000989582,0x57
"RX","data",0.501472084,0.000989582,0x11
"RX","data",0.502513768,0.000989582,0x5B
"RX","data",0.50355544,0.000989582,0x11
"RX","data",0.504597112,0.000989582,0x6A
"RX","data",0.505638796,0.000989582,0x11
"RX","data",0.506680496,0.000989582,0xEE
"RX","data",0.507722144,0.000989582,0x14
"RX","data",0.508763824,0.000989582,0x08
"RX","data",0.509805504,0.000989582,0x14
"RX","data",0.510847172,0.000989582,0x09
"RX","data",0.51188886,0.000989582,0x14
"RX","data",0.512930534,0.000989582,0x0A
"RX","data",0.51397221,0.000989582,0x14
"RX","data",0.51501389,0.000989582,0x0B
"RX","data",0.516055568,0.000989582,0x14
"RX","data",0.517097244,0.000989582,0x0C
"RX","data",0.518138916,0.000989582,0x14
"RX","data",0.519180598,0.000989582,0x0D
"RX","data",0.520222272,0.000989582,0x40
"RX","data",0.521263948,0.000989582,0x00
"RX","data",0.522305628,0.000989582,0xFC
"RX","data",0.523347302,0.000989582,0xA1
"TX","data",0.541600762,0.000989582,0x03
"TX","data",0.542655888,0.000989582,0x00
"TX","data",0.543711198,0.000989582,0x00
"TX","data",0.54476656,0.000989582,0x00
"TX","data",0.545821838,0.000989582,0x01
"TX","data",0.546877032,0.000989582,0x00
"TX","data",0.547932328,0.000989582,0xFF
"TX","data",0.548987512,0.000989582,0xFB
"RX","data",0.83420601,0.000989582,0x03
"RX","data",0.83524769,0.000989582,0x00
"RX","data",0.836289364,0.000989582,0x00
"RX","data",0.83733104,0.000989582,0x00
"RX","data",0.838372716,0.000989582,0x0E
"RX","data",0.839414396,0.000989582,0x00
"RX","data",0.840456072,0.000989582,0x01
"RX","data",0.841497748,0.000989582,0x52
"RX","data",0.84253943,0.000989582,0x00
"RX","data",0.843581104,0.000989582,0xF0
"RX","data",0.844622786,0.000989582,0x01
"RX","data",0.845664464,0.000989582,0x52
"RX","data",0.846706134,0.000989582,0x06
"RX","data",0.84774781,0.000989582,0x11
"RX","data",0.84878949,0.000989582,0x4D
"RX","data",0.849831164,0.000989582,0x10
"RX","data",0.850872842,0.000989582,0xB5
"RX","data",0.851914518,0.000989582,0x10
"RX","data",0.852956198,0.000989582,0x99
"RX","data",0.853997872,0.000989582,0xFC
"RX","data",0.855039552,0.000989582,0x86
"TX","data",0.86964619,0.000989582,0x03
"TX","data",0.870701476,0.000989582,0x00
"TX","data",0.871756834,0.000989582,0x00
"TX","data",0.87281221,0.000989582,0x00
"TX","data",0.873867492,0.000989582,0x1D
"TX","data",0.874922738,0.000989582,0x01
"TX","data",0.875978052,0.000989582,0x00
"TX","data",0.877033248,0.000989582,0x01
"TX","data",0.87808845,0.000989582,0x00
"TX","data",0.87914388,0.000989582,0x01
"TX","data",0.880199212,0.000989582,0x52
"TX","data",0.881254508,0.000989582,0x00
"TX","data",0.882309738,0.000989582,0xFF
"TX","data",0.883365066,0.000989582,0xFF
"TX","data",0.8844206,0.000989582,0xF0
"TX","data",0.885475942,0.000989582,0x01
"TX","data",0.886531244,0.000989582,0x00
"TX","data",0.887586632,0.000989582,0x00
"TX","data",0.888641976,0.000989582,0x52
"TX","data",0.889697238,0.000989582,0x06
"TX","data",0.890752514,0.000989582,0xFF
"TX","data",0.891807808,0.000989582,0xFF
"TX","data",0.892863418,0.000989582,0x11
"TX","data",0.893919094,0.000989582,0x4D
"TX","data",0.894974358,0.000989582,0x00
"TX","data",0.896029552,0.000989582,0x00
"TX","data",0.897084814,0.000989582,0x10
"TX","data",0.898140172,0.000989582,0xB5
"TX","data",0.89919541,0.000989582,0x00
"TX","data",0.900250672,0.000989582,0x00
"TX","data",0.901305844,0.000989582,0x10
"TX","data",0.902360952,0.000989582,0x99
"TX","data",0.90341622,0.000989582,0xFF
"TX","data",0.904471582,0.000989582,0xFF
"TX","data",0.905526878,0.000989582,0xF6
"TX","data",0.906582116,0.000989582,0x7B
"RX","data",1.165169026,0.000989582,0x05
"RX","data",1.166210708,0.000989582,0x00
"RX","data",1.167252388,0.000989582,0x00
"RX","data",1.168294062,0.000989582,0x00
"RX","data",1.169335738,0.000989582,0x14
"RX","data",1.170377416,0.000989582,0x52
"RX","data",1.171419098,0.000989582,0x01
"RX","data",1.17246077,0.000989582,0x00
"RX","data",1.173502454,0.000989582,0x00
"RX","data",1.17454413,0.000989582,0x52
"RX","data",1.1755858,0.000989582,0x30
"RX","data",1.176627478,0.000989582,0x00
"RX","data",1.177669162,0.000989582,0x03
"RX","data",1.178710832,0.000989582,0x52
"RX","data",1.179752508,0.000989582,0x31
"RX","data",1.180794188,0.000989582,0x00
"RX","data",1.181835868,0.000989582,0x03
"RX","data",1.18287754,0.000989582,0x52
"RX","data",1.183919212,0.000989582,0x33
"RX","data",1.184960888,0.000989582,0x00
"RX","data",1.186002572,0.000989582,0x00
"RX","data",1.18704425,0.000989582,0xF2
"RX","data",1.188085912,0.000989582,0x00
"RX","data",1.189127602,0.000989582,0x01
"RX","data",1.19016928,0.000989582,0x00
"RX","data",1.191210962,0.000989582,0xFD
"RX","data",1.192252626,0.000989582,0x10
"TX","data",1.196066742,0.000989582,0x05
"TX","data",1.197122286,0.000989582,0x00
"TX","data",1.198177748,0.000989582,0x00
"TX","data",1.199233236,0.000989582,0x00
"TX","data",1.200288852,0.000989582,0x01
"TX","data",1.201344294,0.000989582,0x01
"TX","data",1.202399576,0.000989582,0xFF
"TX","data",1.203454948,0.000989582,0xF8
"RX","data",1.503215512,0.000989582,0x03
"RX","data",1.504257194,0.000989582,0x00
"RX","data",1.505298872,0.000989582,0x00
"RX","data",1.506340552,0.000989582,0x00
"RX","data",1.507382222,0.000989582,0x28
"RX","data",1.508423902,0.000989582,0x10
"RX","data",1.509465578,0.000989582,0x00
"RX","data",1.510507254,0.000989582,0x10
"RX","data",1.511548938,0.000989582,0x01
"RX","data",1.512590614,0.000989582,0x10
"RX","data",1.513632286,0.000989582,0x02
"RX","data",1.514673972,0.000989582,0x10
"RX","data",1.515715652,0.000989582,0x03
"RX","data",1.516757322,0.000989582,0x10
"RX","data",1.517799,0.000989582,0x10
"RX","data",1.518840664,0.000989582,0x10
"RX","data",1.51988235,0.000989582,0x11
"RX","data",1.520924028,0.000989582,0x10
"RX","data",1.521965698,0.000989582,0x22
"RX","data",1.523007386,0.000989582,0x10
"RX","data",1.524049058,0.000989582,0x23
"RX","data",1.525090728,0.000989582,0x10
"RX","data",1.526132412,0.000989582,0x30
"RX","data",1.527174086,0.000989582,0x10
"RX","data",1.528215764,0.000989582,0x31
"RX","data",1.52925744,0.000989582,0x10
"RX","data",1.530299122,0.000989582,0x33
"RX","data",1.531340796,0.000989582,0x14
"RX","data",1.532382474,0.000989582,0x00
"RX","data",1.53342415,0.000989582,0x14
"RX","data",1.534465818,0.000989582,0x01
"RX","data",1.535507504,0.000989582,0x14
"RX","data",1.536549176,0.000989582,0x02
"RX","data",1.537590856,0.000989582,0x14
"RX","data",1.538632534,0.000989582,0x03
"RX","data",1.539674214,0.000989582,0x14
"RX","data",1.540715882,0.000989582,0x04
"RX","data",1.541757564,0.000989582,0x14
"RX","data",1.54279924,0.000989582,0x05
"RX","data",1.543840918,0.000989582,0x14
"RX","data",1.54488259,0.000989582,0x06
"RX","data",1.545924274,0.000989582,0x14
"RX","data",1.546965948,0.000989582,0x0E
"RX","data",1.54800763,0.000989582,0x11
"RX","data",1.549049308,0.000989582,0x16
"RX","data",1.55009098,0.000989582,0xFD
"RX","data",1.551132656,0.000989582,0x3A
"TX","data",1.560530012,0.000989582,0x03
"TX","data",1.56158522,0.000989582,0x00
"TX","data",1.562640346,0.000989582,0x00
"TX","data",1.563695692,0.000989582,0x00
"TX","data",1.5647511,0.000989582,0x51
"TX","data",1.565806462,0.000989582,0x01
"TX","data",1.566861564,0.000989582,0x10
"TX","data",1.567916816,0.000989582,0x00
"TX","data",1.568972296,0.000989582,0x00
"TX","data",1.570027726,0.000989582,0x01
"TX","data",1.571083148,0.000989582,0x10
"TX","data",1.57213865,0.000989582,0x01
"TX","data",1.573194028,0.000989582,0x00
"TX","data",1.57424932,0.000989582,0x01
"TX","data",1.575304716,0.000989582,0x10
"TX","data",1.576359866,0.000989582,0x02
"TX","data",1.577415116,0.000989582,0x00
"TX","data",1.578470312,0.000989582,0xC3
"TX","data",1.579525598,0.000989582,0x10
"TX","data",1.580580876,0.000989582,0x03
"TX","data",1.581636,0.000989582,0x00
"TX","data",1.582691172,0.000989582,0x00
"TX","data",1.583746494,0.000989582,0x10
"TX","data",1.584801786,0.000989582,0x10
"TX","data",1.585856892,0.000989582,0xFF
"TX","data",1.586912278,0.000989582,0xFF
"TX","data",1.587967546,0.000989582,0x10
"TX","data",1.58902284,0.000989582,0x11
"TX","data",1.590078328,0.000989582,0x00
"TX","data",1.591133766,0.000989582,0x00
"TX","data",1.592189124,0.000989582,0x10
"TX","data",1.59324433,0.000989582,0x22
"TX","data",1.594299926,0.000989582,0xFF
"TX","data",1.595355286,0.000989582,0xFF
"TX","data",1.596410588,0.000989582,0x10
"TX","data",1.597465932,0.000989582,0x23
"TX","data",1.598521174,0.000989582,0xFF
"TX","data",1.599576386,0.000989582,0xFF
"TX","data",1.600631652,0.000989582,0x10
"TX","data",1.601686848,0.000989582,0x30
"TX","data",1.602742228,0.000989582,0x00
"TX","data",1.60379735,0.000989582,0x00
"TX","data",1.604852688,0.000989582,0x10
"TX","data",1.605907904,0.000989582,0x31
"TX","data",1.606963104,0.000989582,0x00
"TX","data",1.60801829,0.000989582,0x00
"TX","data",1.60907368,0.000989582,0x10
"TX","data",1.610128938,0.000989582,0x33
"TX","data",1.611184164,0.000989582,0x1B
"TX","data",1.612239636,0.000989582,0x71
"TX","data",1.613294984,0.000989582,0x14
"TX","data",1.614350512,0.000989582,0x00
"TX","data",1.615405744,0.000989582,0x00
"TX","data",1.61646099,0.000989582,0x00
"TX","data",1.617516266,0.000989582,0x14
"TX","data",1.618571536,0.000989582,0x01
"TX","data",1.619626858,0.000989582,0x00
"TX","data",1.620682166,0.000989582,0x00
"TX","data",1.621737426,0.000989582,0x14
"TX","data",1.622793114,0.000989582,0x02
"TX","data",1.623860262,0.000989582,0x00
"TX","data",1.624915646,0.000989582,0x00
"TX","data",1.625970786,0.000989582,0x14
"TX","data",1.627026234,0.000989582,0x03
"TX","data",1.62808154,0.000989582,0x00
"TX","data",1.629136824,0.000989582,0x00
"TX","data",1.63019217,0.000989582,0x14
"TX","data",1.631247718,0.000989582,0x04
"TX","data",1.632302946,0.000989582,0x00
"TX","data",1.63335806,0.000989582,0x00
"TX","data",1.634413392,0.000989582,0x14
"TX","data",1.635468786,0.000989582,0x05
"TX","data",1.636524166,0.000989582,0x00
"TX","data",1.63757928,0.000989582,0x00
"TX","data",1.63863448,0.000989582,0x14
"TX","data",1.639689766,0.000989582,0x06
"TX","data",1.640745006,0.000989582,0x00
"TX","data",1.641800504,0.000989582,0x00
"TX","data",1.642856022,0.000989582,0x14
"TX","data",1.643923508,0.000989582,0x0E
"TX","data",1.644978802,0.000989582,0x00
"TX","data",1.646034024,0.000989582,0x00
"TX","data",1.647089404,0.000989582,0x11
"TX","data",1.648144708,0.000989582,0x16
"TX","data",1.649200074,0.000989582,0xFF
"TX","data",1.65025524,0.000989582,0xFF
"TX","data",1.651310438,0.000989582,0xF3
"TX","data",1.652365942,0.000989582,0xC7
"RX","data",1.862303884,0.000989582,0x04
"RX","data",1.86334557,0.000989582,0x00
"RX","data",1.864387248,0.000989582,0x00
"RX","data",1.865428922,0.000989582,0x00
"RX","data",1.866470598,0.000989582,0x04
"RX","data",1.867512274,0.000989582,0x10
"RX","data",1.868553956,0.000989582,0x01
"RX","data",1.869595628,0.000989582,0x00
"RX","data",1.870637306,0.000989582,0x02
"RX","data",1.871678982,0.000989582,0xFF
"RX","data",1.872720662,0.000989582,0xE4
"TX","data",1.88795076,0.000989582,0x04
"TX","data",1.889005988,0.000989582,0x00
"TX","data",1.89006145,0.000989582,0x00
"TX","data",1.891116686,0.000989582,0x00
"TX","data",1.892172064,0.000989582,0x01
"TX","data",1.893227614,0.000989582,0x01
"TX","data",1.894283024,0.000989582,0xFF
"TX","data",1.895338458,0.000989582,0xF9
"RX","data",2.183162658,0.000989582,0x03
"RX","data",2.184204346,0.000989582,0x00
"RX","data",2.185246022,0.000989582,0x00
"RX","data",2.186287698,0.000989582,0x00
"RX","data",2.187329376,0.000989582,0x02
"RX","data",2.188371052,0.000989582,0x10
"RX","data",2.18941273,0.000989582,0x01
"RX","data",2.190454404,0.000989582,0xFF
"RX","data",2.191496084,0.000989582,0xE9
"TX","data",2.203270952,0.000989582,0x03
"TX","data",2.204326316,0.000989582,0x00
"TX","data",2.205381666,0.000989582,0x00
"TX","data",2.206437118,0.000989582,0x00
"TX","data",2.207492112,0.000989582,0x05
"TX","data",2.20854731,0.000989582,0x01
"TX","data",2.209602794,0.000989582,0x10
"TX","data",2.210658066,0.000989582,0x01
"TX","data",2.211717416,0.000989582,0x00
"TX","data",2.21277258,0.000989582,0x02
"TX","data",2.213827954,0.000989582,0xFF
"TX","data",2.214883354,0.000989582,0xE3
"RX","data",2.501208854,0.000989582,0x03
"RX","data",2.50225054,0.000989582,0x00
"RX","data",2.503292216,0.000989582,0x00
"RX","data",2.504333884,0.000989582,0x00
"RX","data",2.505375568,0.000989582,0x14
"RX","data",2.50641725,0.000989582,0x11
"RX","data",2.507458924,0.000989582,0x20
"RX","data",2.508500598,0.000989582,0x11
"RX","data",2.509542258,0.000989582,0x00
"RX","data",2.510583954,0.000989582,0x11
"RX","data",2.511625632,0.000989582,0x21
"RX","data",2.51266731,0.000989582,0x11
"RX","data",2.513708988,0.000989582,0x08
"RX","data",2.51475066,0.000989582,0x11
"RX","data",2.515792342,0.000989582,0x02
"RX","data",2.516834008,0.000989582,0x10
"RX","data",2.51787569,0.000989582,0xB6
"RX","data",2.518917364,0.000989582,0x11
"RX","data",2.51995905,0.000989582,0x09
"RX","data",2.521000726,0.000989582,0x11
"RX","data",2.522042402,0.000989582,0x41
"RX","data",2.52308408,0.000989582,0x10
"RX","data",2.524125756,0.000989582,0x04
"RX","data",2.525167434,0.000989582,0x11
"RX","data",2.52620911,0.000989582,0x01
"RX","data",2.527250788,0.000989582,0xFD
"RX","data",2.528292458,0.000989582,0xF0
"TX","data",2.546571452,0.000989582,0x03
"TX","data",2.54762663,0.000989582,0x00
"TX","data",2.548681806,0.000989582,0x00
"TX","data",2.549737016,0.000989582,0x00
"TX","data",2.550792594,0.000989582,0x29
"TX","data",2.551847994,0.000989582,0x01
"TX","data",2.552903378,0.000989582,0x11
"TX","data",2.553958528,0.000989582,0x20
"TX","data",2.555013668,0.000989582,0xFF
"TX","data",2.556068918,0.000989582,0xFF
"TX","data",2.55712415,0.000989582,0x11
"TX","data",2.558179564,0.000989582,0x00
"TX","data",2.559234982,0.000989582,0x00
"TX","data",2.56029033,0.000989582,0x00
"TX","data",2.561345704,0.000989582,0x11
"TX","data",2.562401248,0.000989582,0x21
"TX","data",2.56345653,0.000989582,0xFF
"TX","data",2.564511774,0.000989582,0xFF
"TX","data",2.565566892,0.000989582,0x11
"TX","data",2.56662217,0.000989582,0x08
"TX","data",2.56767743,0.000989582,0x00
"TX","data",2.568732778,0.000989582,0x00
"TX","data",2.56978811,0.000989582,0x11
"TX","data",2.570847564,0.000989582,0x02
"TX","data",2.57190269,0.000989582,0xFF
"TX","data",2.572957904,0.000989582,0xFF
"TX","data",2.574013162,0.000989582,0x10
"TX","data",2.57506853,0.000989582,0xB6
"TX","data",2.576123768,0.000989582,0xFF
"TX","data",2.577178964,0.000989582,0xFF
"TX","data",2.578234238,0.000989582,0x11
"TX","data",2.579289518,0.000989582,0x09
"TX","data",2.58034468,0.000989582,0x00
"TX","data",2.581400138,0.000989582,0x00
"TX","data",2.5824554,0.000989582,0x11
"TX","data",2.583510952,0.000989582,0x41
"TX","data",2.5845663,0.000989582,0xFF
"TX","data",2.585621726,0.000989582,0xFF
"TX","data",2.586677148,0.000989582,0x10
"TX","data",2.587732346,0.000989582,0x04
"TX","data",2.58878769,0.000989582,0xFF
"TX","data",2.589842994,0.000989582,0xFF
"TX","data",2.590910504,0.000989582,0x11
"TX","data",2.591966048,0.000989582,0x01
"TX","data",2.593021226,0.000989582,0x00
"TX","data",2.594076524,0.000989582,0x00
"TX","data",2.595131816,0.000989582,0xF1
"TX","data",2.596186984,0.000989582,0xE6
"RX","data",2.84019291,0.000989582,0x03
"RX","data",2.841234592,0.000989582,0x00
"RX","data",2.842276266,0.000989582,0x00
"RX","data",2.84331795,0.000989582,0x00
"RX","data",2.844359626,0.000989582,0x0A
"RX","data",2.845401296,0.000989582,0x11
"RX","data",2.846442976,0.000989582,0xFE
"RX","data",2.847484652,0.000989582,0x11
"RX","data",2.848526338,0.000989582,0x1B
"RX","data",2.849568006,0.000989582,0x11
"RX","data",2.850609692,0.000989582,0x1C
"RX","data",2.851651366,0.000989582,0x11
"RX","data",2.852693036,0.000989582,0x1D
"RX","data",2.853734708,0.000989582,0x11
"RX","data",2.854776396,0.000989582,0x1F
"RX","data",2.855818074,0.000989582,0xFE
"RX","data",2.856859748,0.000989582,0x2C
"TX","data",2.874760534,0.000989582,0x03
"TX","data",2.875815868,0.000989582,0x00
"TX","data",2.87687115,0.000989582,0x00
"TX","data",2.877926482,0.000989582,0x00
"TX","data",2.8789859,0.000989582,0x01
"TX","data",2.880041248,0.000989582,0x00
"TX","data",2.881096548,0.000989582,0xFF
"TX","data",2.882151962,0.000989582,0xFB
"RX","data",3.16719757,0.000989582,0x03
"RX","data",3.16823925,0.000989582,0x00
"RX","data",3.169280928,0.000989582,0x00
"RX","data",3.17032261,0.000989582,0x00
"RX","data",3.171364276,0.000989582,0x02
"RX","data",3.172405964,0.000989582,0xF2
"RX","data",3.173447634,0.000989582,0x49
"RX","data",3.174489312,0.000989582,0xFE
"RX","data",3.17553099,0.000989582,0xBF
"TX","data",3.181935182,0.000989582,0x03
"TX","data",3.182990554,0.000989582,0x00
"TX","data",3.184045958,0.000989582,0x00
"TX","data",3.185101306,0.000989582,0x00
"TX","data",3.186156456,0.000989582,0x05
"TX","data",3.187211728,0.000989582,0x01
"TX","data",3.18826715,0.000989582,0xF2
"TX","data",3.189322506,0.000989582,0x49
"TX","data",3.190377668,0.000989582,0x01
"TX","data",3.191432818,0.000989582,0x00
"TX","data",3.192487968,0.000989582,0xFE
"TX","data",3.19354327,0.000989582,0xBA
"RX","data",3.486181338,0.000989582,0x03
"RX","data",3.487223014,0.000989582,0x00
"RX","data",3.488264696,0.000989582,0x00
"RX","data",3.489306372,0.000989582,0x00
"RX","data",3.490348046,0.000989582,0x0E
"RX","data",3.491389716,0.000989582,0x00
"RX","data",3.492431402,0.000989582,0x01
"RX","data",3.49347308,0.000989582,0x52
"RX","data",3.494514752,0.000989582,0x00
"RX","data",3.495556438,0.000989582,0xF0
"RX","data",3.496598112,0.000989582,0x01
"RX","data",3.497639782,0.000989582,0x52
"RX","data",3.498681452,0.000989582,0x06
"RX","data",3.499723148,0.000989582,0x11
"RX","data",3.500764818,0.000989582,0x4D
"RX","data",3.501806492,0.000989582,0x10
"RX","data",3.502848172,0.000989582,0xB5
"RX","data",3.50388985,0.000989582,0x10
"RX","data",3.504931522,0.000989582,0x99
"RX","data",3.505973206,0.000989582,0xFC
"RX","data",3.50701488,0.000989582,0x86
"TX","data",3.524353216,0.000989582,0x03
"TX","data",3.525408398,0.000989582,0x00
"TX","data",3.526463612,0.000989582,0x00
"TX","data",3.527518686,0.000989582,0x00
"TX","data",3.528573512,0.000989582,0x1D
"TX","data",3.52962896,0.000989582,0x01
"TX","data",3.530683948,0.000989582,0x00
"TX","data",3.531739148,0.000989582,0x01
"TX","data",3.53279431,0.000989582,0x00
"TX","data",3.533849602,0.000989582,0x01
"TX","data",3.534904892,0.000989582,0x52
"TX","data",3.535960112,0.000989582,0x00
"TX","data",3.537015312,0.000989582,0xFF
"TX","data",3.538070874,0.000989582,0xFF
"TX","data",3.53912622,0.000989582,0xF0
"TX","data",3.540181446,0.000989582,0x01
"TX","data",3.541236704,0.000989582,0x00
"TX","data",3.54229182,0.000989582,0x00
"TX","data",3.543347114,0.000989582,0x52
"TX","data",3.544402224,0.000989582,0x06
"TX","data",3.54545734,0.000989582,0xFF
"TX","data",3.546512646,0.000989582,0xFF
"TX","data",3.547568078,0.000989582,0x11
"TX","data",3.548623326,0.000989582,0x4D
"TX","data",3.549678646,0.000989582,0x00
"TX","data",3.550733852,0.000989582,0x00
