name,type,start_time,duration,"data"
"RX","data",0.065554346,0.000989582,0x03
"RX","data",0.066596028,0.000989582,0x00
"RX","data",0.067637696,0.000989582,0x00
"RX","data",0.068679374,0.000989582,0x00
"RX","data",0.069721058,0.000989582,0x02
"RX","data",0.070762732,0.000989582,0xF2
"RX","data",0.07180441,0.000989582,0x12
"RX","data",0.072846076,0.000989582,0xFE
"RX","data",0.073887762,0.000989582,0xF6
"TX","data",0.090360638,0.000989582,0x03
"TX","data",0.091415644,0.000989582,0x00
"TX","data",0.092470578,0.000989582,0x00
"TX","data",0.093525688,0.000989582,0x00
"TX","data",0.094581002,0.000989582,0x11
"TX","data",0.095643986,0.000989582,0x01
"TX","data",0.096698918,0.000989582,0xF2
"TX","data",0.097753792,0.000989582,0x12
"TX","data",0.098808696,0.000989582,0x0D
"TX","data",0.099863398,0.000989582,0x45
"TX","data",0.100918308,0.000989582,0x01
"TX","data",0.101973098,0.000989582,0x00
"TX","data",0.103028046,0.000989582,0x02
"TX","data",0.104082842,0.000989582,0x00
"TX","data",0.105137884,0.000989582,0x06
"TX","data",0.10619271,0.000989582,0x0C
"TX","data",0.107247838,0.000989582,0x00
"TX","data",0.108302858,0.000989582,0x00
"TX","data",0.109357776,0.000989582,0x00
"TX","data",0.110412816,0.000989582,0x01
"TX","data",0.111467742,0.000989582,0x0E
"TX","data",0.11252264,0.000989582,0x01
"TX","data",0.113577498,0.000989582,0xFE
"TX","data",0.11463214,0.000989582,0x6F
"RX","data",0.384642122,0.000989582,0x03
"RX","data",0.3856838,0.000989582,0x00
"RX","data",0.386725482,0.000989582,0x00
"RX","data",0.387767156,0.000989582,0x00
"RX","data",0.388808824,0.000989582,0x28
"RX","data",0.389850508,0.000989582,0x10
"RX","data",0.390892182,0.000989582,0x07
"RX","data",0.39193386,0.000989582,0x10
"RX","data",0.392975536,0.000989582,0x08
"RX","data",0.39401721,0.000989582,0x10
"RX","data",0.395058882,0.000989582,0x37
"RX","data",0.396100564,0.000989582,0x10
"RX","data",0.397142244,0.000989582,0x38
"RX","data",0.398183914,0.000989582,0x10
"RX","data",0.399225598,0.000989582,0x3B
"RX","data",0.400267266,0.000989582,0x10
"RX","data",0.401308942,0.000989582,0x3C
"RX","data",0.402350628,0.000989582,0x10
"RX","data",0.403392302,0.000989582,0x3D
"RX","data",0.404433974,0.000989582,0x10
"RX","data",0.405475654,0.000989582,0xB5
"RX","data",0.406517334,0.000989582,0x11
"RX","data",0.407559012,0.000989582,0x0B
"RX","data",0.408600684,0.000989582,0x11
"RX","data",0.40964236,0.000989582,0x0C
"RX","data",0.410684036,0.000989582,0x11
"RX","data",0.411725706,0.000989582,0x0D
"RX","data",0.412767388,0.000989582,0x11
"RX","data",0.413809068,0.000989582,0x0E
"RX","data",0.41485074,0.000989582,0x11
"RX","data",0.415892418,0.000989582,0x11
"RX","data",0.416934094,0.000989582,0x11
"RX","data",0.417975772,0.000989582,0x15
"RX","data",0.419017442,0.000989582,0x11
"RX","data",0.420059126,0.000989582,0x16
"RX","data",0.421100792,0.000989582,0x11
"RX","data",0.42214247,0.000989582,0x41
"RX","data",0.423184152,0.000989582,0x11
"RX","data",0.424225828,0.000989582,0x45
"RX","data",0.425267498,0.000989582,0x11
"RX","data",0.426309182,0.000989582,0x47
"RX","data",0.427350854,0.000989582,0x11
"RX","data",0.428392522,0.000989582,0x48
"RX","data",0.42943422,0.000989582,0x11
"RX","data",0.430475886,0.000989582,0x49
"RX","data",0.431517556,0.000989582,0xFA
"RX","data",0.432559236,0.000989582,0xD5
"TX","data",0.440359254,0.000989582,0x03
"TX","data",0.441414328,0.000989582,0x00
"TX","data",0.442469286,0.000989582,0x00
"TX","data",0.443524304,0.000989582,0x00
"TX","data",0.444579084,0.000989582,0x51
"TX","data",0.445634118,0.000989582,0x01
"TX","data",0.446688874,0.000989582,0x10
"TX","data",0.447743648,0.000989582,0x07
"TX","data",0.448798502,0.000989582,0xFF
"TX","data",0.449853486,0.000989582,0xFF
"TX","data",0.450908264,0.000989582,0x10
"TX","data",0.45196315,0.000989582,0x08
"TX","data",0.453017928,0.000989582,0xFF
"TX","data",0.454072606,0.000989582,0xFF
"TX","data",0.455127174,0.000989582,0x10
"TX","data",0.45618202,0.000989582,0x37
"TX","data",0.45723692,0.000989582,0xFF
"TX","data",0.45829186,0.000989582,0xFF
"TX","data",0.459346688,0.000989582,0x10
"TX","data",0.46040162,0.000989582,0x38
"TX","data",0.461456542,0.000989582,0xFF
"TX","data",0.462511538,0.000989582,0xFF
"TX","data",0.463566476,0.000989582,0x10
"TX","data",0.464621234,0.000989582,0x3B
"TX","data",0.46568402,0.000989582,0xFF
"TX","data",0.466738844,0.000989582,0xFF
"TX","data",0.467793654,0.000989582,0x10
"TX","data",0.468848384,0.000989582,0x3C
"TX","data",0.469903302,0.000989582,0xFF
"TX","data",0.470958306,0.000989582,0xFF
"TX","data",0.472013356,0.000989582,0x10
"TX","data",0.473068134,0.000989582,0x3D
"TX","data",0.47412284,0.000989582,0xFF
"TX","data",0.475177688,0.000989582,0xFF
"TX","data",0.476232644,0.000989582,0x10
"TX","data",0.477287418,0.000989582,0xB5
"TX","data",0.47834225,0.000989582,0x00
"TX","data",0.479397214,0.000989582,0x00
"TX","data",0.48045216,0.000989582,0x11
"TX","data",0.48150718,0.000989582,0x0B
"TX","data",0.482561862,0.000989582,0xFF
"TX","data",0.48361688,0.000989582,0xFF
"TX","data",0.484671796,0.000989582,0x11
"TX","data",0.48572662,0.000989582,0x0C
"TX","data",0.486781452,0.000989582,0xFF
"TX","data",0.487836352,0.000989582,0xFF
"TX","data",0.488891216,0.000989582,0x11
"TX","data",0.489946256,0.000989582,0x0D
"TX","data",0.491001122,0.000989582,0xFF
"TX","data",0.492056206,0.000989582,0xFF
"TX","data",0.493111096,0.000989582,0x11
"TX","data",0.494165894,0.000989582,0x0E
"TX","data",0.495220802,0.000989582,0xFF
"TX","data",0.49627564,0.000989582,0xFF
"TX","data",0.497330446,0.000989582,0x11
"TX","data",0.498385244,0.000989582,0x11
"TX","data",0.499440102,0.000989582,0xFF
"TX","data",0.500495166,0.000989582,0xFF
"TX","data",0.501549916,0.000989582,0x11
"TX","data",0.502604808,0.000989582,0x15
"TX","data",0.503659866,0.000989582,0xFF
"TX","data",0.504714458,0.000989582,0xFF
"TX","data",0.50576922,0.000989582,0x11
"TX","data",0.506823888,0.000989582,0x16
"TX","data",0.507878578,0.000989582,0xFF
"TX","data",0.508933506,0.000989582,0xFF
"TX","data",0.509988412,0.000989582,0x11
"TX","data",0.511043318,0.000989582,0x41
"TX","data",0.512098112,0.000989582,0xFF
"TX","data",0.513153098,0.000989582,0xFF
"TX","data",0.514208026,0.000989582,0x11
"TX","data",0.515262972,0.000989582,0x45
"TX","data",0.516317808,0.000989582,0x00
"TX","data",0.517372648,0.000989582,0x00
"TX","data",0.518427524,0.000989582,0x11
"TX","data",0.519482506,0.000989582,0x47
"TX","data",0.520537436,0.000989582,0xFF
"TX","data",0.521592448,0.000989582,0xFF
"TX","data",0.52264731,0.000989582,0x11
"TX","data",0.523702432,0.000989582,0x48
"TX","data",0.524757142,0.000989582,0xFF
"TX","data",0.525820158,0.000989582,0xFF
"TX","data",0.526875022,0.000989582,0x11
"TX","data",0.5279299,0.000989582,0x49
"TX","data",0.52898489,0.000989582,0xFF
"TX","data",0.530039864,0.000989582,0xFF
"TX","data",0.531094736,0.000989582,0xD6
"TX","data",0.532149762,0.000989582,0xCF
"RX","data",0.743626126,0.000989582,0x03
"RX","data",0.744667802,0.000989582,0x00
"RX","data",0.745709486,0.000989582,0x00
"RX","data",0.746751156,0.000989582,0x00
"RX","data",0.74779283,0.000989582,0x0E
"RX","data",0.748834514,0.000989582,0x00
"RX","data",0.74987619,0.000989582,0x01
"RX","data",0.750917864,0.000989582,0x52
"RX","data",0.75195954,0.000989582,0x00
"RX","data",0.753001216,0.000989582,0xF0
"RX","data",0.75404289,0.000989582,0x01
"RX","data",0.75508456,0.000989582,0x52
"RX","data",0.756126246,0.000989582,0x06
"RX","data",0.757167916,0.000989582,0x11
"RX","data",0.7582096,0.000989582,0x4D
"RX","data",0.759251272,0.000989582,0x10
"RX","data",0.760292964,0.000989582,0xB5
"RX","data",0.761334624,0.000989582,0x10
"RX","data",0.762376306,0.000989582,0x99
"RX","data",0.763417976,0.000989582,0xFC
"RX","data",0.764459658,0.000989582,0x86
"TX","data",0.787276522,0.000989582,0x03
"TX","data",0.788331616,0.000989582,0x00
"TX","data",0.789386508,0.000989582,0x00
"TX","data",0.790441492,0.000989582,0x00
"TX","data",0.791496582,0.000989582,0x1D
"TX","data",0.792555384,0.000989582,0x01
"TX","data",0.793610262,0.000989582,0x00
"TX","data",0.794665236,0.000989582,0x01
"TX","data",0.795720156,0.000989582,0x00
"TX","data",0.796774994,0.000989582,0x01
"TX","data",0.797829786,0.000989582,0x52
"TX","data",0.798884708,0.000989582,0x00
"TX","data",0.79993958,0.000989582,0xFF
"TX","data",0.80099431,0.000989582,0xFF
"TX","data",0.802049104,0.000989582,0xF0
"TX","data",0.80310404,0.000989582,0x01
"TX","data",0.804159144,0.000989582,0x00
"TX","data",0.805214054,0.000989582,0x00
"TX","data",0.806268912,0.000989582,0x52
"TX","data",0.807323752,0.000989582,0x06
"TX","data",0.80837859,0.000989582,0xFF
"TX","data",0.809433432,0.000989582,0xFF
"TX","data",0.81048826,0.000989582,0x11
"TX","data",0.811543194,0.000989582,0x4D
"TX","data",0.812610352,0.000989582,0x00
"TX","data",0.813669166,0.000989582,0x00
"TX","data",0.814724114,0.000989582,0x10
"TX","data",0.815778994,0.000989582,0xB5
"TX","data",0.816833918,0.000989582,0x00
"TX","data",0.817889006,0.000989582,0x00
"TX","data",0.818944098,0.000989582,0x10
"TX","data",0.81999913,0.000989582,0x99
"TX","data",0.821054136,0.000989582,0xFF
"TX","data",0.82210926,0.000989582,0xFF
"TX","data",0.823164216,0.000989582,0xF6
"TX","data",0.82421898,0.000989582,0x7B
"RX","data",1.074693134,0.000989582,0x05
"RX","data",1.075734822,0.000989582,0x00
"RX","data",1.076776498,0.000989582,0x00
"RX","data",1.077818166,0.000989582,0x00
"RX","data",1.078859848,0.000989582,0x14
"RX","data",1.079901522,0.000989582,0x52
"RX","data",1.080943196,0.000989582,0x01
"RX","data",1.08198488,0.000989582,0x00
"RX","data",1.083026554,0.000989582,0x00
"RX","data",1.084068226,0.000989582,0x52
"RX","data",1.085109908,0.000989582,0x30
"RX","data",1.086151586,0.000989582,0x00
"RX","data",1.087193258,0.000989582,0x03
"RX","data",1.088234936,0.000989582,0x52
"RX","data",1.089276612,0.000989582,0x31
"RX","data",1.090318284,0.000989582,0x00
"RX","data",1.091359966,0.000989582,0x03
"RX","data",1.092401646,0.000989582,0x52
"RX","data",1.093443318,0.000989582,0x33
"RX","data",1.094484994,0.000989582,0x00
"RX","data",1.095526668,0.000989582,0x00
"RX","data",1.096568342,0.000989582,0xF2
"RX","data",1.097610022,0.000989582,0x00
"RX","data",1.098651704,0.000989582,0x01
"RX","data",1.09969337,0.000989582,0x00
"RX","data",1.100735048,0.000989582,0xFD
"RX","data",1.10177673,0.000989582,0x10
"TX","data",1.11504592,0.000989582,0x05
"TX","data",1.116100922,0.000989582,0x00
"TX","data",1.117155908,0.000989582,0x00
"TX","data",1.118210796,0.000989582,0x00
"TX","data",1.11926531,0.000989582,0x01
"TX","data",1.120320384,0.000989582,0x01
"TX","data",1.121375516,0.000989582,0xFF
"TX","data",1.122430514,0.000989582,0xF8
"RX","data",1.412531086,0.000989582,0x03
"RX","data",1.413572768,0.000989582,0x00
"RX","data",1.414614446,0.000989582,0x00
"RX","data",1.41565612,0.000989582,0x00
"RX","data",1.416697794,0.000989582,0x28
"RX","data",1.417739472,0.000989582,0x10
"RX","data",1.41878115,0.000989582,0x00
"RX","data",1.419822826,0.000989582,0x10
"RX","data",1.420864502,0.000989582,0x01
"RX","data",1.421906176,0.000989582,0x10
"RX","data",1.422947866,0.000989582,0x02
"RX","data",1.423989532,0.000989582,0x10
"RX","data",1.425031202,0.000989582,0x03
"RX","data",1.426072888,0.000989582,0x10
"RX","data",1.427114562,0.000989582,0x10
"RX","data",1.428156236,0.000989582,0x10
"RX","data",1.429197908,0.000989582,0x11
"RX","data",1.430239592,0.000989582,0x10
"RX","data",1.431281264,0.000989582,0x22
"RX","data",1.43232294,0.000989582,0x10
"RX","data",1.433364618,0.000989582,0x23
"RX","data",1.43440629,0.000989582,0x10
"RX","data",1.435447972,0.000989582,0x30
"RX","data",1.436489644,0.000989582,0x10
"RX","data",1.437531324,0.000989582,0x31
"RX","data",1.438573006,0.000989582,0x10
"RX","data",1.439614678,0.000989582,0x33
"RX","data",1.440656324,0.000989582,0x14
"RX","data",1.441698034,0.000989582,0x00
"RX","data",1.442739708,0.000989582,0x14
"RX","data",1.443781386,0.000989582,0x01
"RX","data",1.444823062,0.000989582,0x14
"RX","data",1.445864734,0.000989582,0x02
"RX","data",1.446906408,0.000989582,0x14
"RX","data",1.447948094,0.000989582,0x03
"RX","data",1.448989768,0.000989582,0x14
"RX","data",1.450031438,0.000989582,0x04
"RX","data",1.451073124,0.000989582,0x14
"RX","data",1.452114794,0.000989582,0x05
"RX","data",1.45315647,0.000989582,0x14
"RX","data",1.454198142,0.000989582,0x06
"RX","data",1.455239828,0.000989582,0x14
"RX","data",1.456281494,0.000989582,0x0E
"RX","data",1.45732318,0.000989582,0x11
"RX","data",1.458364848,0.000989582,0x16
"RX","data",1.459406528,0.000989582,0xFD
"RX","data",1.460448204,0.000989582,0x3A
"TX","data",1.482165064,0.000989582,0x03
"TX","data",1.483219894,0.000989582,0x00
"TX","data",1.484274824,0.000989582,0x00
"TX","data",1.485329834,0.000989582,0x00
"TX","data",1.486384534,0.000989582,0x51
"TX","data",1.48743936,0.000989582,0x01
"TX","data",1.48849427,0.000989582,0x10
"TX","data",1.489549152,0.000989582,0x00
"TX","data",1.490604204,0.000989582,0x00
"TX","data",1.491659102,0.000989582,0x01
"TX","data",1.492714178,0.000989582,0x10
"TX","data",1.493769202,0.000989582,0x01
"TX","data",1.49482428,0.000989582,0x00
"TX","data",1.49587932,0.000989582,0x01
"TX","data",1.496934282,0.000989582,0x10
"TX","data",1.497989262,0.000989582,0x02
"TX","data",1.499044168,0.000989582,0x00
"TX","data",1.50009908,0.000989582,0xCD
"TX","data",1.501154068,0.000989582,0x10
"TX","data",1.502209114,0.000989582,0x03
"TX","data",1.50326404,0.000989582,0x00
"TX","data",1.504319118,0.000989582,0x00
"TX","data",1.505373848,0.000989582,0x10
"TX","data",1.506428652,0.000989582,0x10
"TX","data",1.507483776,0.000989582,0xFF
"TX","data",1.508538946,0.000989582,0xFF
"TX","data",1.509593846,0.000989582,0x10
"TX","data",1.510648694,0.000989582,0x11
"TX","data",1.511703752,0.000989582,0x00
"TX","data",1.512758702,0.000989582,0x00
"TX","data",1.513813748,0.000989582,0x10
"TX","data",1.51486883,0.000989582,0x22
"TX","data",1.515923708,0.000989582,0xFF
"TX","data",1.51697872,0.000989582,0xFF
"TX","data",1.51803372,0.000989582,0x10
"TX","data",1.519088728,0.000989582,0x23
"TX","data",1.520143974,0.000989582,0xFF
"TX","data",1.521199038,0.000989582,0xFF
"TX","data",1.522254082,0.000989582,0x10
"TX","data",1.523309188,0.000989582,0x30
"TX","data",1.524364244,0.000989582,0x00
"TX","data",1.52541922,0.000989582,0x00
"TX","data",1.526474228,0.000989582,0x10
"TX","data",1.527529364,0.000989582,0x31
"TX","data",1.528592332,0.000989582,0x00
"TX","data",1.529647184,0.000989582,0x00
"TX","data",1.530702218,0.000989582,0x10
"TX","data",1.531757258,0.000989582,0x33
"TX","data",1.53281224,0.000989582,0x1B
"TX","data",1.533867278,0.000989582,0x71
"TX","data",1.534922224,0.000989582,0x14
"TX","data",1.535977384,0.000989582,0x00
"TX","data",1.537032176,0.000989582,0x00
"TX","data",1.538087202,0.000989582,0x00
"TX","data",1.539142096,0.000989582,0x14
"TX","data",1.540197094,0.000989582,0x01
"TX","data",1.541252156,0.000989582,0x00
"TX","data",1.542307088,0.000989582,0x00
"TX","data",1.543361986,0.000989582,0x14
"TX","data",1.544417088,0.000989582,0x02
"TX","data",1.545472082,0.000989582,0x00
"TX","data",1.546526964,0.000989582,0x00
"TX","data",1.547581816,0.000989582,0x14
"TX","data",1.548660832,0.000989582,0x03
"TX","data",1.549715834,0.000989582,0x00
"TX","data",1.55077072,0.000989582,0x00
"TX","data",1.55182586,0.000989582,0x14
"TX","data",1.552880994,0.000989582,0x04
"TX","data",1.553935926,0.000989582,0x00
"TX","data",1.554991086,0.000989582,0x00
"TX","data",1.55604593,0.000989582,0x14
"TX","data",1.557100922,0.000989582,0x05
"TX","data",1.558155992,0.000989582,0x00
"TX","data",1.559210938,0.000989582,0x00
"TX","data",1.560265638,0.000989582,0x14
"TX","data",1.561320614,0.000989582,0x06
"TX","data",1.562375622,0.000989582,0x00
"TX","data",1.563430444,0.000989582,0x00
"TX","data",1.56448539,0.000989582,0x14
"TX","data",1.565540362,0.000989582,0x0E
"TX","data",1.566595116,0.000989582,0x00
"TX","data",1.56765004,0.000989582,0x00
"TX","data",1.568704908,0.000989582,0x11
"TX","data",1.569759764,0.000989582,0x16
"TX","data",1.570814882,0.000989582,0xFF
"TX","data",1.571869868,0.000989582,0xFF
"TX","data",1.572924854,0.000989582,0xF3
"TX","data",1.57397992,0.000989582,0xBD
"RX","data",1.771619258,0.000989582,0x02
"RX","data",1.772660936,0.000989582,0x00
"RX","data",1.773702622,0.000989582,0x00
"RX","data",1.774744292,0.000989582,0x00
"RX","data",1.775785972,0.000989582,0x04
"RX","data",1.77682765,0.000989582,0x10
"RX","data",1.777869316,0.000989582,0x02
"RX","data",1.778911,0.000989582,0x00
"RX","data",1.779952674,0.000989582,0xC8
"RX","data",1.780994352,0.000989582,0xFF
"RX","data",1.782036028,0.000989582,0x1F
"TX","data",1.790952488,0.000989582,0x02
"TX","data",1.792007504,0.000989582,0x00
"TX","data",1.793062322,0.000989582,0x00
"TX","data",1.794117126,0.000989582,0x00
"TX","data",1.795171846,0.000989582,0x01
"TX","data",1.796226808,0.000989582,0x01
"TX","data",1.797281632,0.000989582,0xFF
"TX","data",1.798356692,0.000989582,0xFB
