name,type,start_time,duration,"data"
"RX","data",0.04016012,0.000989582,0x03
"RX","data",0.041201806,0.000989582,0x00
"RX","data",0.042243476,0.000989582,0x00
"RX","data",0.043285156,0.000989582,0x00
"RX","data",0.044326832,0.000989582,0x28
"RX","data",0.045368504,0.000989582,0x14
"RX","data",0.046410186,0.000989582,0x00
"RX","data",0.047451858,0.000989582,0x14
"RX","data",0.04849354,0.000989582,0x01
"RX","data",0.049535198,0.000989582,0x14
"RX","data",0.050576888,0.000989582,0x02
"RX","data",0.051618562,0.000989582,0x14
"RX","data",0.052660246,0.000989582,0x03
"RX","data",0.053701922,0.000989582,0x14
"RX","data",0.054743602,0.000989582,0x04
"RX","data",0.055785274,0.000989582,0x14
"RX","data",0.056826938,0.000989582,0x05
"RX","data",0.057868632,0.000989582,0x14
"RX","data",0.058910304,0.000989582,0x06
"RX","data",0.059951976,0.000989582,0x14
"RX","data",0.060993658,0.000989582,0x0E
"RX","data",0.062035332,0.000989582,0x14
"RX","data",0.06307701,0.000989582,0x07
"RX","data",0.064118686,0.000989582,0x14
"RX","data",0.06516036,0.000989582,0x0F
"RX","data",0.066202036,0.000989582,0x14
"RX","data",0.067243716,0.000989582,0x10
"RX","data",0.068285394,0.000989582,0x14
"RX","data",0.069327072,0.000989582,0x11
"RX","data",0.070368754,0.000989582,0x14
"RX","data",0.071410418,0.000989582,0x12
"RX","data",0.072452106,0.000989582,0x14
"RX","data",0.073493776,0.000989582,0x13
"RX","data",0.074535448,0.000989582,0x14
"RX","data",0.075577134,0.000989582,0x14
"RX","data",0.076618812,0.000989582,0x14
"RX","data",0.077660488,0.000989582,0x15
"RX","data",0.07870216,0.000989582,0x14
"RX","data",0.079743838,0.000989582,0x16
"RX","data",0.080785516,0.000989582,0x14
"RX","data",0.081827194,0.000989582,0x17
"RX","data",0.082868864,0.000989582,0x14
"RX","data",0.08391054,0.000989582,0x18
"RX","data",0.084952224,0.000989582,0x12
"RX","data",0.085993894,0.000989582,0x04
"RX","data",0.087035572,0.000989582,0xFD
"RX","data",0.08807725,0.000989582,0x55
"TX","data",0.099938352,0.000989582,0x03
"TX","data",0.101005106,0.000989582,0x00
"TX","data",0.102059912,0.000989582,0x00
"TX","data",0.10311483,0.000989582,0x00
"TX","data",0.104169694,0.000989582,0x51
"TX","data",0.105224672,0.000989582,0x01
"TX","data",0.106279736,0.000989582,0x14
"TX","data",0.107334882,0.000989582,0x00
"TX","data",0.108389698,0.000989582,0x00
"TX","data",0.109444862,0.000989582,0x00
"TX","data",0.110499852,0.000989582,0x14
"TX","data",0.111554744,0.000989582,0x01
"TX","data",0.112609658,0.000989582,0x00
"TX","data",0.11366457,0.000989582,0x00
"TX","data",0.114719692,0.000989582,0x14
"TX","data",0.115774788,0.000989582,0x02
"TX","data",0.116829714,0.000989582,0x00
"TX","data",0.117884602,0.000989582,0x00
"TX","data",0.118939604,0.000989582,0x14
"TX","data",0.11999468,0.000989582,0x03
"TX","data",0.121061934,0.000989582,0x00
"TX","data",0.122117024,0.000989582,0x00
"TX","data",0.123171876,0.000989582,0x14
"TX","data",0.124227036,0.000989582,0x04
"TX","data",0.125282238,0.000989582,0x00
"TX","data",0.12633719,0.000989582,0x00
"TX","data",0.12739215,0.000989582,0x14
"TX","data",0.128447108,0.000989582,0x05
"TX","data",0.129501924,0.000989582,0x00
"TX","data",0.130556888,0.000989582,0x00
"TX","data",0.131611954,0.000989582,0x14
"TX","data",0.132666932,0.000989582,0x06
"TX","data",0.133721908,0.000989582,0x00
"TX","data",0.134776924,0.000989582,0x00
"TX","data",0.13583182,0.000989582,0x14
"TX","data",0.136886732,0.000989582,0x0E
"TX","data",0.137941734,0.000989582,0x00
"TX","data",0.13899666,0.000989582,0x00
"TX","data",0.14005167,0.000989582,0x14
"TX","data",0.141118722,0.000989582,0x07
"TX","data",0.142173742,0.000989582,0xFF
"TX","data",0.143228422,0.000989582,0xFF
"TX","data",0.144283456,0.000989582,0x14
"TX","data",0.145338502,0.000989582,0x0F
"TX","data",0.146393488,0.000989582,0x00
"TX","data",0.147448344,0.000989582,0x00
"TX","data",0.148503208,0.000989582,0x14
"TX","data",0.149558094,0.000989582,0x10
"TX","data",0.150613138,0.000989582,0x00
"TX","data",0.15166807,0.000989582,0x00
"TX","data",0.152722834,0.000989582,0x14
"TX","data",0.153777888,0.000989582,0x11
"TX","data",0.154832958,0.000989582,0x00
"TX","data",0.155887856,0.000989582,0x00
"TX","data",0.156942924,0.000989582,0x14
"TX","data",0.157997878,0.000989582,0x12
"TX","data",0.159052804,0.000989582,0x00
"TX","data",0.160107732,0.000989582,0x00
"TX","data",0.161174744,0.000989582,0x14
"TX","data",0.162229784,0.000989582,0x13
"TX","data",0.163284778,0.000989582,0x00
"TX","data",0.164339732,0.000989582,0x00
"TX","data",0.165394834,0.000989582,0x14
"TX","data",0.166449824,0.000989582,0x14
"TX","data",0.167504722,0.000989582,0x00
"TX","data",0.1685598,0.000989582,0x00
"TX","data",0.169614854,0.000989582,0x14
"TX","data",0.170669856,0.000989582,0x15
"TX","data",0.17172501,0.000989582,0x00
"TX","data",0.172779718,0.000989582,0x00
"TX","data",0.173834574,0.000989582,0x14
"TX","data",0.174889464,0.000989582,0x16
"TX","data",0.175944392,0.000989582,0x00
"TX","data",0.176999422,0.000989582,0x00
"TX","data",0.178054586,0.000989582,0x14
"TX","data",0.179109682,0.000989582,0x17
"TX","data",0.180164672,0.000989582,0x00
"TX","data",0.181231636,0.000989582,0x00
"TX","data",0.182286428,0.000989582,0x14
"TX","data",0.183341374,0.000989582,0x18
"TX","data",0.184396536,0.000989582,0x00
"TX","data",0.18545153,0.000989582,0x00
"TX","data",0.186506514,0.000989582,0x12
"TX","data",0.187561696,0.000989582,0x04
"TX","data",0.188616696,0.000989582,0x00
"TX","data",0.189671664,0.000989582,0x00
"TX","data",0.190726794,0.000989582,0xFB
"TX","data",0.191781972,0.000989582,0x2D
"RX","data",0.400185932,0.000989582,0x03
"RX","data",0.401227616,0.000989582,0x00
"RX","data",0.402269288,0.000989582,0x00
"RX","data",0.403310964,0.000989582,0x00
"RX","data",0.404352646,0.000989582,0x0E
"RX","data",0.405394316,0.000989582,0x00
"RX","data",0.406435998,0.000989582,0x01
"RX","data",0.407477672,0.000989582,0x52
"RX","data",0.40851935,0.000989582,0x00
"RX","data",0.40956103,0.000989582,0xF0
"RX","data",0.4106027,0.000989582,0x01
"RX","data",0.411644382,0.000989582,0x52
"RX","data",0.412686052,0.000989582,0x06
"RX","data",0.413727736,0.000989582,0x11
"RX","data",0.41476941,0.000989582,0x4D
"RX","data",0.415811082,0.000989582,0x10
"RX","data",0.416852768,0.000989582,0xB5
"RX","data",0.417894438,0.000989582,0x10
"RX","data",0.418936112,0.000989582,0x99
"RX","data",0.419977792,0.000989582,0xFC
"RX","data",0.42101947,0.000989582,0x86
"TX","data",0.442483054,0.000989582,0x03
"TX","data",0.443538042,0.000989582,0x00
"TX","data",0.444593052,0.000989582,0x00
"TX","data",0.445648102,0.000989582,0x00
"TX","data",0.446703434,0.000989582,0x1D
"TX","data",0.447758412,0.000989582,0x01
"TX","data",0.44881326,0.000989582,0x00
"TX","data",0.449868194,0.000989582,0x01
"TX","data",0.450923202,0.000989582,0x00
"TX","data",0.451978232,0.000989582,0x01
"TX","data",0.453033196,0.000989582,0x52
"TX","data",0.454088188,0.000989582,0x00
"TX","data",0.455143182,0.000989582,0xFF
"TX","data",0.456198358,0.000989582,0xFF
"TX","data",0.45725326,0.000989582,0xF0
"TX","data",0.458308186,0.000989582,0x01
"TX","data",0.459363396,0.000989582,0x00
"TX","data",0.46041843,0.000989582,0x00
"TX","data",0.46147334,0.000989582,0x52
"TX","data",0.462528408,0.000989582,0x06
"TX","data",0.463583474,0.000989582,0xFF
"TX","data",0.464638534,0.000989582,0xFF
"TX","data",0.465693482,0.000989582,0x11
"TX","data",0.466748466,0.000989582,0x4D
"TX","data",0.467803562,0.000989582,0x00
"TX","data",0.4688585,0.000989582,0x00
"TX","data",0.469913364,0.000989582,0x10
"TX","data",0.470968274,0.000989582,0xB5
"TX","data",0.472023162,0.000989582,0x00
"TX","data",0.473078292,0.000989582,0x00
"TX","data",0.47413325,0.000989582,0x10
"TX","data",0.47518818,0.000989582,0x99
"TX","data",0.476243122,0.000989582,0xFF
"TX","data",0.477298154,0.000989582,0xFF
"TX","data",0.478353424,0.000989582,0xF6
"TX","data",0.479408358,0.000989582,0x7B
"RX","data",0.732294752,0.000989582,0x05
"RX","data",0.733336432,0.000989582,0x00
"RX","data",0.734378104,0.000989582,0x00
"RX","data",0.735419784,0.000989582,0x00
"RX","data",0.736461458,0.000989582,0x14
"RX","data",0.737503144,0.000989582,0x52
"RX","data",0.738544814,0.000989582,0x01
"RX","data",0.739586492,0.000989582,0x00
"RX","data",0.740628172,0.000989582,0x00
"RX","data",0.741669844,0.000989582,0x52
"RX","data",0.742711522,0.000989582,0x30
"RX","data",0.7437532,0.000989582,0x00
"RX","data",0.74479487,0.000989582,0x03
"RX","data",0.745836552,0.000989582,0x52
"RX","data",0.746878228,0.000989582,0x31
"RX","data",0.7479199,0.000989582,0x00
"RX","data",0.74896158,0.000989582,0x03
"RX","data",0.750003258,0.000989582,0x52
"RX","data",0.751044932,0.000989582,0x33
"RX","data",0.752086606,0.000989582,0x00
"RX","data",0.753128286,0.000989582,0x00
"RX","data",0.754169962,0.000989582,0xF2
"RX","data",0.755211642,0.000989582,0x00
"RX","data",0.756253314,0.000989582,0x01
"RX","data",0.757294988,0.000989582,0x00
"RX","data",0.758336668,0.000989582,0xFD
"RX","data",0.759378346,0.000989582,0x10
"TX","data",0.782078726,0.000989582,0x05
"TX","data",0.78313362,0.000989582,0x00
"TX","data",0.78418865,0.000989582,0x00
"TX","data",0.785243834,0.000989582,0x00
"TX","data",0.786298902,0.000989582,0x01
"TX","data",0.787354048,0.000989582,0x01
"TX","data",0.788409302,0.000989582,0xFF
"TX","data",0.789464514,0.000989582,0xF8
"RX","data",1.070132754,0.000989582,0x03
"RX","data",1.07117443,0.000989582,0x00
"RX","data",1.07221609,0.000989582,0x00
"RX","data",1.07325779,0.000989582,0x00
"RX","data",1.074299464,0.000989582,0x28
"RX","data",1.07534114,0.000989582,0x10
"RX","data",1.07638282,0.000989582,0x00
"RX","data",1.077424492,0.000989582,0x10
"RX","data",1.078466174,0.000989582,0x01
"RX","data",1.079507846,0.000989582,0x10
"RX","data",1.080549524,0.000989582,0x02
"RX","data",1.081591196,0.000989582,0x10
"RX","data",1.082632874,0.000989582,0x03
"RX","data",1.083674552,0.000989582,0x10
"RX","data",1.084716232,0.000989582,0x10
"RX","data",1.085757904,0.000989582,0x10
"RX","data",1.086799586,0.000989582,0x11
"RX","data",1.087841254,0.000989582,0x10
"RX","data",1.088882936,0.000989582,0x22
"RX","data",1.089924616,0.000989582,0x10
"RX","data",1.090966286,0.000989582,0x23
"RX","data",1.092007972,0.000989582,0x10
"RX","data",1.093049638,0.000989582,0x30
"RX","data",1.094091318,0.000989582,0x10
"RX","data",1.095132994,0.000989582,0x31
"RX","data",1.096174666,0.000989582,0x10
"RX","data",1.097216354,0.000989582,0x33
"RX","data",1.098258022,0.000989582,0x14
"RX","data",1.0992997,0.000989582,0x00
"RX","data",1.100341376,0.000989582,0x14
"RX","data",1.101383052,0.000989582,0x01
"RX","data",1.102424728,0.000989582,0x14
"RX","data",1.103466406,0.000989582,0x02
"RX","data",1.104508076,0.000989582,0x14
"RX","data",1.10554976,0.000989582,0x03
"RX","data",1.106591434,0.000989582,0x14
"RX","data",1.107633114,0.000989582,0x04
"RX","data",1.108674794,0.000989582,0x14
"RX","data",1.109716464,0.000989582,0x05
"RX","data",1.110758142,0.000989582,0x14
"RX","data",1.111799812,0.000989582,0x06
"RX","data",1.112841496,0.000989582,0x14
"RX","data",1.113883172,0.000989582,0x0E
"RX","data",1.114924844,0.000989582,0x11
"RX","data",1.115966532,0.000989582,0x16
"RX","data",1.1170082,0.000989582,0xFD
"RX","data",1.118049878,0.000989582,0x3A
"TX","data",1.141717736,0.000989582,0x03
"TX","data",1.142772866,0.000989582,0x00
"TX","data",1.14382792,0.000989582,0x00
"TX","data",1.144883036,0.000989582,0x00
"TX","data",1.145937954,0.000989582,0x51
"TX","data",1.1469969,0.000989582,0x01
"TX","data",1.148051842,0.000989582,0x10
"TX","data",1.149106724,0.000989582,0x00
"TX","data",1.150161696,0.000989582,0x00
"TX","data",1.151216644,0.000989582,0x01
"TX","data",1.152271692,0.000989582,0x10
"TX","data",1.153326646,0.000989582,0x01
"TX","data",1.154381784,0.000989582,0x00
"TX","data",1.15543697,0.000989582,0x04
"TX","data",1.15649178,0.000989582,0x10
"TX","data",1.157546748,0.000989582,0x02
"TX","data",1.158601772,0.000989582,0x00
"TX","data",1.159656634,0.000989582,0xC3
"TX","data",1.160711642,0.000989582,0x10
"TX","data",1.16176653,0.000989582,0x03
"TX","data",1.16282143,0.000989582,0x00
"TX","data",1.16387639,0.000989582,0x00
"TX","data",1.164931544,0.000989582,0x10
"TX","data",1.165986548,0.000989582,0x10
"TX","data",1.167053666,0.000989582,0xFF
"TX","data",1.168108572,0.000989582,0xFF
"TX","data",1.1691634,0.000989582,0x10
"TX","data",1.170218356,0.000989582,0x11
"TX","data",1.171273524,0.000989582,0x00
"TX","data",1.172328428,0.000989582,0x00
"TX","data",1.173383382,0.000989582,0x10
"TX","data",1.17443831,0.000989582,0x22
"TX","data",1.17549343,0.000989582,0xFF
"TX","data",1.17654843,0.000989582,0xFF
"TX","data",1.177603426,0.000989582,0x10
"TX","data",1.17865853,0.000989582,0x23
"TX","data",1.179713376,0.000989582,0xFF
"TX","data",1.180772478,0.000989582,0xFF
"TX","data",1.18182753,0.000989582,0x10
"TX","data",1.182882532,0.000989582,0x30
"TX","data",1.183937612,0.000989582,0x00
"TX","data",1.184992444,0.000989582,0x00
"TX","data",1.186047414,0.000989582,0x10
"TX","data",1.18711056,0.000989582,0x31
"TX","data",1.18816564,0.000989582,0x00
"TX","data",1.189220508,0.000989582,0x00
"TX","data",1.190275518,0.000989582,0x10
"TX","data",1.191330612,0.000989582,0x33
"TX","data",1.192385528,0.000989582,0x1B
"TX","data",1.193440336,0.000989582,0x71
"TX","data",1.194495058,0.000989582,0x14
"TX","data",1.195550262,0.000989582,0x00
"TX","data",1.196605298,0.000989582,0x00
"TX","data",1.197660422,0.000989582,0x00
"TX","data",1.198715428,0.000989582,0x14
"TX","data",1.199770418,0.000989582,0x01
"TX","data",1.200825392,0.000989582,0x00
"TX","data",1.201880562,0.000989582,0x00
"TX","data",1.202935546,0.000989582,0x14
"TX","data",1.203990446,0.000989582,0x02
"TX","data",1.205045462,0.000989582,0x00
"TX","data",1.206100344,0.000989582,0x00
"TX","data",1.207167378,0.000989582,0x14
"TX","data",1.208222244,0.000989582,0x03
"TX","data",1.209277268,0.000989582,0x00
"TX","data",1.21033225,0.000989582,0x00
"TX","data",1.2113871,0.000989582,0x14
"TX","data",1.212442158,0.000989582,0x04
"TX","data",1.213497472,0.000989582,0x00
"TX","data",1.214552552,0.000989582,0x00
"TX","data",1.21560762,0.000989582,0x14
"TX","data",1.21666275,0.000989582,0x05
"TX","data",1.217717822,0.000989582,0x00
"TX","data",1.21877278,0.000989582,0x00
"TX","data",1.219827706,0.000989582,0x14
"TX","data",1.220882736,0.000989582,0x06
"TX","data",1.221937756,0.000989582,0x00
"TX","data",1.22299268,0.000989582,0x00
"TX","data",1.22404765,0.000989582,0x14
"TX","data",1.225102568,0.000989582,0x0E
"TX","data",1.226157536,0.000989582,0x00
"TX","data",1.2272244,0.000989582,0x00
"TX","data",1.22827943,0.000989582,0x11
"TX","data",1.229334468,0.000989582,0x16
"TX","data",1.230389642,0.000989582,0xFF
"TX","data",1.231444728,0.000989582,0xFF
"TX","data",1.232499728,0.000989582,0xF3
"TX","data",1.23355471,0.000989582,0xC4
"RX","data",1.429220986,0.000989582,0x03
"RX","data",1.430262668,0.000989582,0x00
"RX","data",1.43130434,0.000989582,0x00
"RX","data",1.432346014,0.000989582,0x00
"RX","data",1.433387696,0.000989582,0x14
"RX","data",1.43442937,0.000989582,0x11
"RX","data",1.435471048,0.000989582,0x20
"RX","data",1.436512724,0.000989582,0x11
"RX","data",1.437554398,0.000989582,0x00
"RX","data",1.438596078,0.000989582,0x11
"RX","data",1.439637756,0.000989582,0x21
"RX","data",1.440679428,0.000989582,0x11
"RX","data",1.441721106,0.000989582,0x08
"RX","data",1.442762782,0.000989582,0x11
"RX","data",1.443804464,0.000989582,0x02
"RX","data",1.44484614,0.000989582,0x10
"RX","data",1.445887814,0.000989582,0xB6
"RX","data",1.446929488,0.000989582,0x11
"RX","data",1.447971164,0.000989582,0x09
"RX","data",1.449012842,0.000989582,0x11
"RX","data",1.450054516,0.000989582,0x41
"RX","data",1.451096204,0.000989582,0x10
"RX","data",1.452137878,0.000989582,0x04
"RX","data",1.453179544,0.000989582,0x11
"RX","data",1.454221228,0.000989582,0x01
"RX","data",1.455262904,0.000989582,0xFD
"RX","data",1.456304572,0.000989582,0xF0
"TX","data",1.465417056,0.000989582,0x03
"TX","data",1.466472032,0.000989582,0x00
"TX","data",1.467527082,0.000989582,0x00
"TX","data",1.468586096,0.000989582,0x00
"TX","data",1.469641376,0.000989582,0x29
"TX","data",1.470696604,0.000989582,0x01
"TX","data",1.471751664,0.000989582,0x11
"TX","data",1.472806734,0.000989582,0x20
"TX","data",1.473861808,0.000989582,0xFF
"TX","data",1.474916732,0.000989582,0xFF
"TX","data",1.47597179,0.000989582,0x11
"TX","data",1.477026712,0.000989582,0x00
"TX","data",1.478081778,0.000989582,0x00
"TX","data",1.479136878,0.000989582,0x01
"TX","data",1.480192064,0.000989582,0x11
"TX","data",1.481247316,0.000989582,0x21
"TX","data",1.48230264,0.000989582,0xFF
"TX","data",1.483357748,0.000989582,0xFF
"TX","data",1.484412872,0.000989582,0x11
"TX","data",1.485468096,0.000989582,0x08
"TX","data",1.486523148,0.000989582,0x00
"TX","data",1.487578214,0.000989582,0x01
"TX","data",1.48863345,0.000989582,0x11
"TX","data",1.489688586,0.000989582,0x02
"TX","data",1.490743634,0.000989582,0xFF
"TX","data",1.491798752,0.000989582,0xFF
"TX","data",1.492853804,0.000989582,0x10
"TX","data",1.493908728,0.000989582,0xB6
"TX","data",1.494963954,0.000989582,0xFF
"TX","data",1.496018936,0.000989582,0xFF
"TX","data",1.497074024,0.000989582,0x11
"TX","data",1.498128846,0.000989582,0x09
"TX","data",1.499184084,0.000989582,0x00
"TX","data",1.500239036,0.000989582,0x00
"TX","data",1.501294162,0.000989582,0x11
"TX","data",1.502349236,0.000989582,0x41
"TX","data",1.503404146,0.000989582,0xFF
"TX","data",1.504459086,0.000989582,0xFF
"TX","data",1.50551414,0.000989582,0x10
"TX","data",1.506569156,0.000989582,0x04
"TX","data",1.507624284,0.000989582,0xFF
"TX","data",1.50867947,0.000989582,0xFF
"TX","data",1.50973449,0.000989582,0x11
"TX","data",1.51078941,0.000989582,0x01
"TX","data",1.511844328,0.000989582,0x00
"TX","data",1.51289935,0.000989582,0x00
"TX","data",1.513954324,0.000989582,0xF1
"TX","data",1.515009408,0.000989582,0xE4
"RX","data",1.767163152,0.000989582,0x03
"RX","data",1.768204836,0.000989582,0x00
"RX","data",1.769246516,0.000989582,0x00
"RX","data",1.77028819,0.000989582,0x00
"RX","data",1.771329872,0.000989582,0x02
"RX","data",1.772371546,0.000989582,0x16
"RX","data",1.773413222,0.000989582,0x06
"RX","data",1.774454898,0.000989582,0xFF
"RX","data",1.775496574,0.000989582,0xDE
"TX","data",1.78561875,0.000989582,0x03
"TX","data",1.786673654,0.000989582,0x00
"TX","data",1.787728678,0.000989582,0x00
"TX","data",1.788783772,0.000989582,0x00
"TX","data",1.789839008,0.000989582,0x01
"TX","data",1.79089403,0.000989582,0x00
"TX","data",1.791949004,0.000989582,0xFF
"TX","data",1.793004038,0.000989582,0xFB
"RX","data",2.086146802,0.000989582,0x02
"RX","data",2.087188484,0.000989582,0x00
"RX","data",2.088230156,0.000989582,0x00
"RX","data",2.089271842,0.000989582,0x00
"RX","data",2.090313516,0.000989582,0x04
"RX","data",2.09135519,0.000989582,0x10
"RX","data",2.092396864,0.000989582,0x02
"RX","data",2.09343854,0.000989582,0x00
"RX","data",2.094480214,0.000989582,0xC8
"RX","data",2.095521892,0.000989582,0xFF
"RX","data",2.096563572,0.000989582,0x1F
"TX","data",2.10626986,0.000989582,0x02
"TX","data",2.107324804,0.000989582,0x00
"TX","data",2.108379972,0.000989582,0x00
"TX","data",2.109435032,0.000989582,0x00
"TX","data",2.110489966,0.000989582,0x01
"TX","data",2.111544962,0.000989582,0x01
"TX","data",2.11259985,0.000989582,0xFF
"TX","data",2.113654842,0.000989582,0xFB
