name,type,start_time,duration,"data"
"RX","data",0.000740314,0.000989582,0x11
"RX","data",0.001781986,0.000989582,0x21
"RX","data",0.002823668,0.000989582,0x11
"RX","data",0.00386534,0.000989582,0x08
"RX","data",0.00490702,0.000989582,0x11
"RX","data",0.005948688,0.000989582,0x02
"RX","data",0.00699037,0.000989582,0x10
"RX","data",0.008032048,0.000989582,0xB6
"RX","data",0.00907373,0.000989582,0x11
"RX","data",0.010115404,0.000989582,0x09
"RX","data",0.01115708,0.000989582,0x11
"RX","data",0.012198756,0.000989582,0x41
"RX","data",0.013240432,0.000989582,0x10
"RX","data",0.014282112,0.000989582,0x04
"RX","data",0.015323786,0.000989582,0x11
"RX","data",0.016365464,0.000989582,0x01
"RX","data",0.01740714,0.000989582,0xFD
"RX","data",0.01844881,0.000989582,0xF0
"TX","data",0.031828918,0.000989582,0x03
"TX","data",0.032884214,0.000989582,0x00
"TX","data",0.033939546,0.000989582,0x00
"TX","data",0.034994816,0.000989582,0x00
"TX","data",0.036050168,0.000989582,0x29
"TX","data",0.037105506,0.000989582,0x01
"TX","data",0.038160894,0.000989582,0x11
"TX","data",0.039216178,0.000989582,0x20
"TX","data",0.040271356,0.000989582,0xFF
"TX","data",0.04132679,0.000989582,0xFF
"TX","data",0.042382168,0.000989582,0x11
"TX","data",0.043437686,0.000989582,0x00
"TX","data",0.044493198,0.000989582,0x00
"TX","data",0.04554839,0.000989582,0x00
"TX","data",0.046603838,0.000989582,0x11
"TX","data",0.047659358,0.000989582,0x21
"TX","data",0.048714806,0.000989582,0xFF
"TX","data",0.049770058,0.000989582,0xFF
"TX","data",0.050825468,0.000989582,0x11
"TX","data",0.051880788,0.000989582,0x08
"TX","data",0.052936246,0.000989582,0x00
"TX","data",0.053991732,0.000989582,0x00
"TX","data",0.055047386,0.000989582,0x11
"TX","data",0.056102712,0.000989582,0x02
"TX","data",0.057158074,0.000989582,0xFF
"TX","data",0.058213504,0.000989582,0xFF
"TX","data",0.059269058,0.000989582,0x10
"TX","data",0.060324418,0.000989582,0xB6
"TX","data",0.061379842,0.000989582,0xFF
"TX","data",0.062435246,0.000989582,0xFF
"TX","data",0.06349056,0.000989582,0x11
"TX","data",0.064545722,0.000989582,0x09
"TX","data",0.065601166,0.000989582,0x00
"TX","data",0.066656466,0.000989582,0x00
"TX","data",0.067711606,0.000989582,0x11
"TX","data",0.068766786,0.000989582,0x41
"TX","data",0.069822088,0.000989582,0xFF
"TX","data",0.07087724,0.000989582,0xFF
"TX","data",0.071932578,0.000989582,0x10
"TX","data",0.072987814,0.000989582,0x04
"TX","data",0.074042662,0.000989582,0xFF
"TX","data",0.075098038,0.000989582,0xFF
"TX","data",0.076153276,0.000989582,0x11
"TX","data",0.077208462,0.000989582,0x01
"TX","data",0.07827176,0.000989582,0x00
"TX","data",0.079327084,0.000989582,0x00
"TX","data",0.080382302,0.000989582,0xF1
"TX","data",0.081437652,0.000989582,0xE6
"RX","data",0.32930752,0.000989582,0x03
"RX","data",0.330349196,0.000989582,0x00
"RX","data",0.33139088,0.000989582,0x00
"RX","data",0.332432556,0.000989582,0x00
"RX","data",0.333474234,0.000989582,0x02
"RX","data",0.334515914,0.000989582,0x16
"RX","data",0.335557584,0.000989582,0x37
"RX","data",0.336599264,0.000989582,0xFF
"RX","data",0.337640942,0.000989582,0xAD
"TX","data",0.357533546,0.000989582,0x03
"TX","data",0.358588766,0.000989582,0x00
"TX","data",0.359644158,0.000989582,0x00
"TX","data",0.360699388,0.000989582,0x00
"TX","data",0.361754798,0.000989582,0x01
"TX","data",0.362810062,0.000989582,0x00
"TX","data",0.363865278,0.000989582,0xFF
"TX","data",0.36492059,0.000989582,0xFB
"RX","data",0.64839546,0.000989582,0x03
"RX","data",0.649437142,0.000989582,0x00
"RX","data",0.650478818,0.000989582,0x00
"RX","data",0.6515205,0.000989582,0x00
"RX","data",0.652562176,0.000989582,0x02
"RX","data",0.65360383,0.000989582,0x10
"RX","data",0.654645532,0.000989582,0x39
"RX","data",0.655687202,0.000989582,0xFF
"RX","data",0.656728872,0.000989582,0xB1
"TX","data",0.66441338,0.000989582,0x03
"TX","data",0.665468778,0.000989582,0x00
"TX","data",0.666524194,0.000989582,0x00
"TX","data",0.667579598,0.000989582,0x00
"TX","data",0.668634988,0.000989582,0x01
"TX","data",0.669690198,0.000989582,0x00
"TX","data",0.670745472,0.000989582,0xFF
"TX","data",0.671800832,0.000989582,0xFB
"RX","data",0.967379238,0.000989582,0x03
"RX","data",0.96842092,0.000989582,0x00
"RX","data",0.969462594,0.000989582,0x00
"RX","data",0.970504292,0.000989582,0x00
"RX","data",0.97154595,0.000989582,0x0E
"RX","data",0.97258763,0.000989582,0x00
"RX","data",0.973629292,0.000989582,0x01
"RX","data",0.97467098,0.000989582,0x52
"RX","data",0.975712656,0.000989582,0x00
"RX","data",0.976754336,0.000989582,0xF0
"RX","data",0.977796014,0.000989582,0x01
"RX","data",0.97883769,0.000989582,0x52
"RX","data",0.979879354,0.000989582,0x06
"RX","data",0.980921046,0.000989582,0x11
"RX","data",0.98196272,0.000989582,0x4D
"RX","data",0.983004396,0.000989582,0x10
"RX","data",0.984046072,0.000989582,0xB5
"RX","data",0.98508774,0.000989582,0x10
"RX","data",0.986129428,0.000989582,0x99
"RX","data",0.987171098,0.000989582,0xFC
"RX","data",0.988212786,0.000989582,0x86
"TX","data",1.00858676,0.000989582,0x03
"TX","data",1.009642238,0.000989582,0x00
"TX","data",1.010697542,0.000989582,0x00
"TX","data",1.011752934,0.000989582,0x00
"TX","data",1.012808154,0.000989582,0x1D
"TX","data",1.013863606,0.000989582,0x01
"TX","data",1.014919094,0.000989582,0x00
"TX","data",1.015974414,0.000989582,0x01
"TX","data",1.01702981,0.000989582,0x00
"TX","data",1.018085066,0.000989582,0x01
"TX","data",1.01914035,0.000989582,0x52
"TX","data",1.02020369,0.000989582,0x00
"TX","data",1.021258838,0.000989582,0xFF
"TX","data",1.022314236,0.000989582,0xFF
"TX","data",1.02336955,0.000989582,0xF0
"TX","data",1.02442504,0.000989582,0x01
"TX","data",1.025480522,0.000989582,0x00
"TX","data",1.02653617,0.000989582,0x00
"TX","data",1.027591512,0.000989582,0x52
"TX","data",1.028646758,0.000989582,0x06
"TX","data",1.029702118,0.000989582,0xFF
"TX","data",1.030757504,0.000989582,0xFF
"TX","data",1.03181284,0.000989582,0x11
"TX","data",1.032868238,0.000989582,0x4D
"TX","data",1.033923966,0.000989582,0x00
"TX","data",1.034979356,0.000989582,0x00
"TX","data",1.036034562,0.000989582,0x10
"TX","data",1.037089792,0.000989582,0xB5
"TX","data",1.038145062,0.000989582,0x00
"TX","data",1.039200406,0.000989582,0x00
"TX","data",1.040279882,0.000989582,0x10
"TX","data",1.041335226,0.000989582,0x99
"TX","data",1.04239077,0.000989582,0xFF
"TX","data",1.043446196,0.000989582,0xFF
"TX","data",1.044501356,0.000989582,0xF6
"TX","data",1.045556694,0.000989582,0x7B
"RX","data",1.29834226,0.000989582,0x05
"RX","data",1.299383938,0.000989582,0x00
"RX","data",1.300425612,0.000989582,0x00
"RX","data",1.30146729,0.000989582,0x00
"RX","data",1.302508968,0.000989582,0x14
"RX","data",1.30355064,0.000989582,0x52
"RX","data",1.304592322,0.000989582,0x01
"RX","data",1.305634,0.000989582,0x00
"RX","data",1.30667568,0.000989582,0x00
"RX","data",1.307717354,0.000989582,0x52
"RX","data",1.308759034,0.000989582,0x30
"RX","data",1.309800706,0.000989582,0x00
"RX","data",1.310842376,0.000989582,0x03
"RX","data",1.311884066,0.000989582,0x52
"RX","data",1.31292574,0.000989582,0x31
"RX","data",1.31396741,0.000989582,0x00
"RX","data",1.315009092,0.000989582,0x03
"RX","data",1.316050772,0.000989582,0x52
"RX","data",1.31709245,0.000989582,0x33
"RX","data",1.318134114,0.000989582,0x00
"RX","data",1.319175802,0.000989582,0x00
"RX","data",1.320217478,0.000989582,0xF2
"RX","data",1.321259156,0.000989582,0x00
"RX","data",1.32230083,0.000989582,0x01
"RX","data",1.323342502,0.000989582,0x00
"RX","data",1.324384184,0.000989582,0xFD
"RX","data",1.325425858,0.000989582,0x10
"TX","data",1.336437334,0.000989582,0x05
"TX","data",1.337492774,0.000989582,0x00
"TX","data",1.338548108,0.000989582,0x00
"TX","data",1.339603464,0.000989582,0x00
"TX","data",1.340658848,0.000989582,0x01
"TX","data",1.341714164,0.000989582,0x01
"TX","data",1.3427694,0.000989582,0xFF
"TX","data",1.343824664,0.000989582,0xF8
"RX","data",1.635346988,0.000989582,0x03
"RX","data",1.63638867,0.000989582,0x00
"RX","data",1.63743035,0.000989582,0x00
"RX","data",1.638472018,0.000989582,0x00
"RX","data",1.63951369,0.000989582,0x28
"RX","data",1.64055538,0.000989582,0x10
"RX","data",1.641597056,0.000989582,0x00
"RX","data",1.642638726,0.000989582,0x10
"RX","data",1.643680414,0.000989582,0x01
"RX","data",1.644722082,0.000989582,0x10
"RX","data",1.645763758,0.000989582,0x02
"RX","data",1.64680544,0.000989582,0x10
"RX","data",1.647847116,0.000989582,0x03
"RX","data",1.648888792,0.000989582,0x10
"RX","data",1.649930472,0.000989582,0x10
"RX","data",1.650972164,0.000989582,0x10
"RX","data",1.65201382,0.000989582,0x11
"RX","data",1.653055498,0.000989582,0x10
"RX","data",1.654097176,0.000989582,0x22
"RX","data",1.655138852,0.000989582,0x10
"RX","data",1.656180538,0.000989582,0x23
"RX","data",1.657222204,0.000989582,0x10
"RX","data",1.658263884,0.000989582,0x30
"RX","data",1.659305562,0.000989582,0x10
"RX","data",1.66034724,0.000989582,0x31
"RX","data",1.661388916,0.000989582,0x10
"RX","data",1.662430594,0.000989582,0x33
"RX","data",1.66347227,0.000989582,0x14
"RX","data",1.664513948,0.000989582,0x00
"RX","data",1.665555626,0.000989582,0x14
"RX","data",1.666597298,0.000989582,0x01
"RX","data",1.667638982,0.000989582,0x14
"RX","data",1.66868066,0.000989582,0x02
"RX","data",1.669722332,0.000989582,0x14
"RX","data",1.670764008,0.000989582,0x03
"RX","data",1.671805684,0.000989582,0x14
"RX","data",1.672847366,0.000989582,0x04
"RX","data",1.673889036,0.000989582,0x14
"RX","data",1.674930718,0.000989582,0x05
"RX","data",1.675972394,0.000989582,0x14
"RX","data",1.67701406,0.000989582,0x06
"RX","data",1.678055748,0.000989582,0x14
"RX","data",1.679097426,0.000989582,0x0E
"RX","data",1.680139094,0.000989582,0x11
"RX","data",1.681180772,0.000989582,0x16
"RX","data",1.682222458,0.000989582,0xFD
"RX","data",1.683264128,0.000989582,0x3A
"TX","data",1.70146143,0.000989582,0x03
"TX","data",1.70251663,0.000989582,0x00
"TX","data",1.703571988,0.000989582,0x00
"TX","data",1.70462722,0.000989582,0x00
"TX","data",1.705682586,0.000989582,0x51
"TX","data",1.70673785,0.000989582,0x01
"TX","data",1.707793218,0.000989582,0x10
"TX","data",1.708848602,0.000989582,0x00
"TX","data",1.70990386,0.000989582,0x00
"TX","data",1.710959254,0.000989582,0x01
"TX","data",1.712014548,0.000989582,0x10
"TX","data",1.713069958,0.000989582,0x01
"TX","data",1.714125386,0.000989582,0x00
"TX","data",1.715180724,0.000989582,0x04
"TX","data",1.716236016,0.000989582,0x10
"TX","data",1.71729141,0.000989582,0x02
"TX","data",1.718346706,0.000989582,0x00
"TX","data",1.719402068,0.000989582,0xC3
"TX","data",1.720457428,0.000989582,0x10
"TX","data",1.721512816,0.000989582,0x03
"TX","data",1.722568028,0.000989582,0x00
"TX","data",1.723623172,0.000989582,0x00
"TX","data",1.724678436,0.000989582,0x10
"TX","data",1.725733856,0.000989582,0x10
"TX","data",1.726788914,0.000989582,0xFF
"TX","data",1.727844208,0.000989582,0xFF
"TX","data",1.728899578,0.000989582,0x10
"TX","data",1.72995487,0.000989582,0x11
"TX","data",1.731010034,0.000989582,0x00
"TX","data",1.732065384,0.000989582,0x00
"TX","data",1.733120612,0.000989582,0x10
"TX","data",1.734175932,0.000989582,0x22
"TX","data",1.735231096,0.000989582,0xFF
"TX","data",1.736286402,0.000989582,0xFF
"TX","data",1.737341608,0.000989582,0x10
"TX","data",1.738396864,0.000989582,0x23
"TX","data",1.739460154,0.000989582,0xFF
"TX","data",1.740515436,0.000989582,0xFF
"TX","data",1.741570638,0.000989582,0x10
"TX","data",1.742626048,0.000989582,0x30
"TX","data",1.743681392,0.000989582,0x00
"TX","data",1.744736664,0.000989582,0x00
"TX","data",1.745792092,0.000989582,0x10
"TX","data",1.746847304,0.000989582,0x31
"TX","data",1.747902732,0.000989582,0x00
"TX","data",1.748961994,0.000989582,0x00
"TX","data",1.750017208,0.000989582,0x10
"TX","data",1.751072646,0.000989582,0x33
"TX","data",1.752127878,0.000989582,0x1B
"TX","data",1.753183078,0.000989582,0x71
"TX","data",1.7542383,0.000989582,0x14
"TX","data",1.755293332,0.000989582,0x00
"TX","data",1.756348786,0.000989582,0x00
"TX","data",1.757404046,0.000989582,0x00
"TX","data",1.758459304,0.000989582,0x14
"TX","data",1.759522608,0.000989582,0x01
"TX","data",1.760577888,0.000989582,0x00
"TX","data",1.761633104,0.000989582,0x00
"TX","data",1.762688458,0.000989582,0x14
"TX","data",1.763743986,0.000989582,0x02
"TX","data",1.764799354,0.000989582,0x00
"TX","data",1.765854358,0.000989582,0x00
"TX","data",1.766909652,0.000989582,0x14
"TX","data",1.767965082,0.000989582,0x03
"TX","data",1.769020236,0.000989582,0x00
"TX","data",1.77007547,0.000989582,0x00
"TX","data",1.771130706,0.000989582,0x14
"TX","data",1.772185966,0.000989582,0x04
"TX","data",1.773241414,0.000989582,0x00
"TX","data",1.77429644,0.000989582,0x00
"TX","data",1.775351552,0.000989582,0x14
"TX","data",1.776406904,0.000989582,0x05
"TX","data",1.777462238,0.000989582,0x00
"TX","data",1.778517516,0.000989582,0x00
"TX","data",1.779584832,0.000989582,0x14
"TX","data",1.780639994,0.000989582,0x06
"TX","data",1.781695164,0.000989582,0x00
"TX","data",1.782750418,0.000989582,0x00
"TX","data",1.783805624,0.000989582,0x14
"TX","data",1.78486094,0.000989582,0x0E
"TX","data",1.785916322,0.000989582,0x00
"TX","data",1.786971642,0.000989582,0x00
"TX","data",1.788027014,0.000989582,0x11
"TX","data",1.789082432,0.000989582,0x16
"TX","data",1.790137772,0.000989582,0xFF
"TX","data",1.791193152,0.000989582,0xFF
"TX","data",1.792248582,0.000989582,0xF3
"TX","data",1.793304162,0.000989582,0xC4
"RX","data",1.995372936,0.000989582,0x04
"RX","data",1.996414622,0.000989582,0x00
"RX","data",1.997456296,0.000989582,0x00
"RX","data",1.998497968,0.000989582,0x00
"RX","data",1.999539654,0.000989582,0x04
"RX","data",2.000581324,0.000989582,0x10
"RX","data",2.001623002,0.000989582,0x01
"RX","data",2.002664688,0.000989582,0x00
"RX","data",2.003706356,0.000989582,0x01
"RX","data",2.004748034,0.000989582,0xFF
"RX","data",2.005789716,0.000989582,0xE5
"TX","data",2.029595986,0.000989582,0x04
"TX","data",2.030651164,0.000989582,0x00
"TX","data",2.031706438,0.000989582,0x00
"TX","data",2.032761776,0.000989582,0x00
"TX","data",2.033817354,0.000989582,0x01
"TX","data",2.034872466,0.000989582,0x01
"TX","data",2.035927694,0.000989582,0xFF
"TX","data",2.036982978,0.000989582,0xF9
"RX","data",2.316335882,0.000989582,0x03
"RX","data",2.317377566,0.000989582,0x00
"RX","data",2.318419242,0.000989582,0x00
"RX","data",2.31946092,0.000989582,0x00
"RX","data",2.320502594,0.000989582,0x02
"RX","data",2.321544274,0.000989582,0x10
"RX","data",2.322585954,0.000989582,0x01
"RX","data",2.323627628,0.000989582,0xFF
"RX","data",2.324669304,0.000989582,0xE9
"TX","data",2.344942906,0.000989582,0x03
"TX","data",2.345998286,0.000989582,0x00
"TX","data",2.347053488,0.000989582,0x00
"TX","data",2.34810879,0.000989582,0x00
"TX","data",2.349163942,0.000989582,0x05
"TX","data",2.350219268,0.000989582,0x01
"TX","data",2.351274666,0.000989582,0x10
"TX","data",2.35232992,0.000989582,0x01
"TX","data",2.353385264,0.000989582,0x00
"TX","data",2.354440642,0.000989582,0x01
"TX","data",2.35549604,0.000989582,0xFF
"TX","data",2.356551316,0.000989582,0xE4
"RX","data",2.63531966,0.000989582,0x03
"RX","data",2.636361334,0.000989582,0x00
"RX","data",2.637403014,0.000989582,0x00
"RX","data",2.638444686,0.000989582,0x00
"RX","data",2.639486368,0.000989582,0x14
"RX","data",2.64052805,0.000989582,0x11
"RX","data",2.641569726,0.000989582,0x20
"RX","data",2.642611396,0.000989582,0x11
"RX","data",2.64365308,0.000989582,0x00
"RX","data",2.644694754,0.000989582,0x11
"RX","data",2.645736442,0.000989582,0x21
"RX","data",2.646778108,0.000989582,0x11
"RX","data",2.64781978,0.000989582,0x08
"RX","data",2.64886146,0.000989582,0x11
"RX","data",2.649903138,0.000989582,0x02
"RX","data",2.650944816,0.000989582,0x10
"RX","data",2.651986496,0.000989582,0xB6
"RX","data",2.653028168,0.000989582,0x11
"RX","data",2.654069848,0.000989582,0x09
"RX","data",2.655111534,0.000989582,0x11
"RX","data",2.656153206,0.000989582,0x41
"RX","data",2.657194882,0.000989582,0x10
"RX","data",2.658236558,0.000989582,0x04
"RX","data",2.65927823,0.000989582,0x11
"RX","data",2.660319908,0.000989582,0x01
"RX","data",2.661361586,0.000989582,0xFD
"RX","data",2.662403264,0.000989582,0xF0
"TX","data",2.671811446,0.000989582,0x03
"TX","data",2.672866866,0.000989582,0x00
"TX","data",2.67392213,0.000989582,0x00
"TX","data",2.674977574,0.000989582,0x00
"TX","data",2.676033054,0.000989582,0x29
"TX","data",2.677088586,0.000989582,0x01
"TX","data",2.67814374,0.000989582,0x11
"TX","data",2.679199092,0.000989582,0x20
"TX","data",2.680254578,0.000989582,0xFF
"TX","data",2.681310122,0.000989582,0xFF
"TX","data",2.68236541,0.000989582,0x11
"TX","data",2.68342057,0.000989582,0x00
"TX","data",2.68447589,0.000989582,0x00
"TX","data",2.685531334,0.000989582,0x00
"TX","data",2.68658648,0.000989582,0x11
"TX","data",2.687641842,0.000989582,0x21
"TX","data",2.68869723,0.000989582,0xFF
"TX","data",2.689752478,0.000989582,0xFF
"TX","data",2.690807732,0.000989582,0x11
"TX","data",2.691863074,0.000989582,0x08
"TX","data",2.692918358,0.000989582,0x00
"TX","data",2.69397371,0.000989582,0x00
"TX","data",2.695028966,0.000989582,0x11
"TX","data",2.696084218,0.000989582,0x02
"TX","data",2.69713974,0.000989582,0xFF
"TX","data",2.698195058,0.000989582,0xFF
"TX","data",2.699250438,0.000989582,0x10
"TX","data",2.700305932,0.000989582,0xB6
"TX","data",2.701361266,0.000989582,0xFF
"TX","data",2.70241682,0.000989582,0xFF
"TX","data",2.703480158,0.000989582,0x11
"TX","data",2.704535434,0.000989582,0x09
"TX","data",2.705590794,0.000989582,0x00
"TX","data",2.706646014,0.000989582,0x00
"TX","data",2.707701456,0.000989582,0x11
"TX","data",2.708756874,0.000989582,0x41
"TX","data",2.709812254,0.000989582,0xFF
"TX","data",2.71086748,0.000989582,0xFF
"TX","data",2.711922788,0.000989582,0x10
"TX","data",2.712978008,0.000989582,0x04
"TX","data",2.714033534,0.000989582,0xFF
"TX","data",2.715088948,0.000989582,0xFF
"TX","data",2.716144258,0.000989582,0x11
"TX","data",2.71719962,0.000989582,0x01
"TX","data",2.718254946,0.000989582,0x00
"TX","data",2.719310052,0.000989582,0x00
"TX","data",2.720365398,0.000989582,0xF1
"TX","data",2.721420716,0.000989582,0xE6
"RX","data",2.97336614,0.000989582,0x03
"RX","data",2.974407818,0.000989582,0x00
"RX","data",2.975449496,0.000989582,0x00
"RX","data",2.976491174,0.000989582,0x00
"RX","data",2.977532848,0.000989582,0x02
"RX","data",2.978574528,0.000989582,0x16
"RX","data",2.979616202,0.000989582,0x38
"RX","data",2.980657878,0.000989582,0xFF
"RX","data",2.981699554,0.000989582,0xAC
"TX","data",2.996951706,0.000989582,0x03
"TX","data",2.99800717,0.000989582,0x00
"TX","data",2.999062592,0.000989582,0x00
"TX","data",3.000117986,0.000989582,0x00
"TX","data",3.001173282,0.000989582,0x01
"TX","data",3.00222869,0.000989582,0x00
"TX","data",3.003283914,0.000989582,0xFF
"TX","data",3.00433935,0.000989582,0xFB
"RX","data",3.292349904,0.000989582,0x03
"RX","data",3.293391586,0.000989582,0x00
"RX","data",3.294433242,0.000989582,0x00
"RX","data",3.295474936,0.000989582,0x00
"RX","data",3.296516614,0.000989582,0x28
"RX","data",3.297558296,0.000989582,0x01
"RX","data",3.298599974,0.000989582,0x10
"RX","data",3.299641646,0.000989582,0x01
"RX","data",3.300683322,0.000989582,0x11
"RX","data",3.301725,0.000989582,0x01
"RX","data",3.302766678,0.000989582,0x12
"RX","data",3.303808356,0.000989582,0x01
"RX","data",3.304850032,0.000989582,0x13
"RX","data",3.305891708,0.000989582,0x01
"RX","data",3.306933386,0.000989582,0x14
"RX","data",3.307975062,0.000989582,0x01
"RX","data",3.309016726,0.000989582,0x15
"RX","data",3.310058428,0.000989582,0x01
"RX","data",3.31110009,0.000989582,0x17
"RX","data",3.312141772,0.000989582,0x01
"RX","data",3.313183452,0.000989582,0x1A
"RX","data",3.314225094,0.000989582,0x01
"RX","data",3.315266786,0.000989582,0x1D
"RX","data",3.316308476,0.000989582,0x01
"RX","data",3.317350158,0.000989582,0x20
"RX","data",3.318391826,0.000989582,0x01
"RX","data",3.319433506,0.000989582,0x31
"RX","data",3.320475186,0.000989582,0x01
"RX","data",3.32151686,0.000989582,0x43
"RX","data",3.32255854,0.000989582,0x01
